(1717243200.000000) can0 100#10277F0300000000
(1717243200.003000) can0 200#DE0D1602B8000000
(1717243200.007000) can0 300#B5014B0400000000
(1717243200.020000) can0 100#2927810300000000
(1717243200.040000) can0 100#4227820300000000
(1717243200.057000) can0 300#B6014B0400000000
(1717243200.060000) can0 100#5C27840300000000
(1717243200.080000) can0 100#7527860300000000
(1717243200.100000) can0 100#8E27880300000000
(1717243200.103000) can0 200#DE0D1E02B8000000
(1717243200.107000) can0 300#B8014B0400000000
(1717243200.120000) can0 100#A7278A0300000000
(1717243200.140000) can0 100#C0278C0300000000
(1717243200.157000) can0 300#BA014B0400000000
(1717243200.160000) can0 100#DA278E0300000000
(1717243200.180000) can0 100#F327900300000000
(1717243200.200000) can0 100#0C28920300000000
(1717243200.203000) can0 200#DE0D2502B8000000
(1717243200.207000) can0 300#BC014B0400000000
(1717243200.220000) can0 100#2528940300000000
(1717243200.240000) can0 100#3E28960300000000
(1717243200.257000) can0 300#BD014B0400000000
(1717243200.260000) can0 100#5728980300000000
(1717243200.280000) can0 100#70289A0300000000
(1717243200.300000) can0 100#89289C0300000000
(1717243200.303000) can0 200#DF0D2C02B8000000
(1717243200.307000) can0 300#BF014B0400000000
(1717243200.320000) can0 100#A2289E0300000000
(1717243200.340000) can0 100#BB28A00300000000
(1717243200.357000) can0 300#C1014B0400000000
(1717243200.360000) can0 100#D428A20300000000
(1717243200.380000) can0 100#ED28A30300000000
(1717243200.400000) can0 100#0629A50300000000
(1717243200.403000) can0 200#DF0D3302B8000000
(1717243200.407000) can0 300#C3014B0400000000
(1717243200.420000) can0 100#1E29A70300000000
(1717243200.440000) can0 100#3729A90300000000
(1717243200.457000) can0 300#C4014B0400000000
(1717243200.460000) can0 100#5029AB0300000000
(1717243200.480000) can0 100#6829AD0300000000
(1717243200.500000) can0 100#8129AE0300000000
(1717243200.503000) can0 200#DF0D3B02B8000000
(1717243200.507000) can0 300#C6014B0400000000
(1717243200.520000) can0 100#9929B00300000000
(1717243200.540000) can0 100#B229B20300000000
(1717243200.557000) can0 300#C8014B0400000000
(1717243200.560000) can0 100#CA29B40300000000
(1717243200.580000) can0 100#E329B50300000000
(1717243200.600000) can0 100#FB29B70300000000
(1717243200.603000) can0 200#DF0D4102B8000000
(1717243200.607000) can0 300#C9014B0400000000
(1717243200.620000) can0 100#132AB90300000000
(1717243200.640000) can0 100#2B2ABB0300000000
(1717243200.657000) can0 300#CB014B0400000000
(1717243200.660000) can0 100#432ABC0300000000
(1717243200.680000) can0 100#5B2ABE0300000000
(1717243200.700000) can0 100#732ABF0300000000
(1717243200.703000) can0 200#DF0D4802B8000000
(1717243200.707000) can0 300#CD014B0400000000
(1717243200.720000) can0 100#8B2AC10300000000
(1717243200.740000) can0 100#A32AC30300000000
(1717243200.757000) can0 300#CF014B0400000000
(1717243200.760000) can0 100#BA2AC40300000000
(1717243200.780000) can0 100#D22AC60300000000
(1717243200.800000) can0 100#EA2AC70300000000
(1717243200.803000) can0 200#DF0D4F02B8000000
(1717243200.807000) can0 300#D0014B0400000000
(1717243200.820000) can0 100#012BC90300000000
(1717243200.840000) can0 100#182BCA0300000000
(1717243200.857000) can0 300#D2014B0400000000
(1717243200.860000) can0 100#302BCC0300000000
(1717243200.880000) can0 100#472BCD0300000000
(1717243200.900000) can0 100#5E2BCF0300000000
(1717243200.903000) can0 200#E00D5502B8000000
(1717243200.907000) can0 300#D4014B0400000000
(1717243200.920000) can0 100#752BD00300000000
(1717243200.940000) can0 100#8C2BD20300000000
(1717243200.957000) can0 300#D6014B0400000000
(1717243200.960000) can0 100#A22BD30300000000
(1717243200.980000) can0 100#B92BD40300000000
(1717243201.000000) can0 100#D02BD60300000000
(1717243201.003000) can0 200#E00D5B02B8000000
(1717243201.007000) can0 300#D7014B0400000000
(1717243201.020000) can0 100#E62BD70300000000
(1717243201.040000) can0 100#FD2BD80300000000
(1717243201.057000) can0 300#D9014B0400000000
(1717243201.060000) can0 100#132CD90300000000
(1717243201.080000) can0 100#292CDB0300000000
(1717243201.100000) can0 100#3F2CDC0300000000
(1717243201.103000) can0 200#E00D6102B8000000
(1717243201.107000) can0 300#DB014B0400000000
(1717243201.120000) can0 100#552CDD0300000000
(1717243201.140000) can0 100#6B2CDE0300000000
(1717243201.157000) can0 300#DD014B0400000000
(1717243201.160000) can0 100#812CDF0300000000
(1717243201.180000) can0 100#962CE00300000000
(1717243201.200000) can0 100#AC2CE10300000000
(1717243201.203000) can0 200#E00D6702B8000000
(1717243201.207000) can0 300#DE014B0400000000
(1717243201.220000) can0 100#C12CE20300000000
(1717243201.240000) can0 100#D62CE30300000000
(1717243201.257000) can0 300#E0014B0400000000
(1717243201.260000) can0 100#EB2CE40300000000
(1717243201.280000) can0 100#002DE50300000000
(1717243201.300000) can0 100#152DE60300000000
(1717243201.303000) can0 200#E00D6C02B8000000
(1717243201.307000) can0 300#E2014B0400000000
(1717243201.320000) can0 100#2A2DE70300000000
(1717243201.340000) can0 100#3F2DE80300000000
(1717243201.357000) can0 300#E3014B0400000000
(1717243201.360000) can0 100#532DE90300000000
(1717243201.380000) can0 100#682DEA0300000000
(1717243201.400000) can0 100#7C2DEB0300000000
(1717243201.403000) can0 200#E00D7202B8000000
(1717243201.407000) can0 300#E5014B0400000000
(1717243201.420000) can0 100#902DEB0300000000
(1717243201.440000) can0 100#A42DEC0300000000
(1717243201.457000) can0 300#E7014B0400000000
(1717243201.460000) can0 100#B82DED0300000000
(1717243201.480000) can0 100#CB2DEE0300000000
(1717243201.500000) can0 100#DF2DEE0300000000
(1717243201.503000) can0 200#E10D7702B8000000
(1717243201.507000) can0 300#E9014B0400000000
(1717243201.520000) can0 100#F22DEF0300000000
(1717243201.540000) can0 100#062EF00300000000
(1717243201.557000) can0 300#EA014B0400000000
(1717243201.560000) can0 100#192EF00300000000
(1717243201.580000) can0 100#2C2EF10300000000
(1717243201.600000) can0 100#3F2EF10300000000
(1717243201.603000) can0 200#E10D7B02B8000000
(1717243201.607000) can0 300#EC014B0400000000
(1717243201.620000) can0 100#522EF20300000000
(1717243201.640000) can0 100#642EF20300000000
(1717243201.657000) can0 300#EE014B0400000000
(1717243201.660000) can0 100#772EF30300000000
(1717243201.680000) can0 100#892EF30300000000
(1717243201.700000) can0 100#9B2EF30300000000
(1717243201.703000) can0 200#E10D7F02B8000000
(1717243201.707000) can0 300#F0014B0400000000
(1717243201.720000) can0 100#AD2EF40300000000
(1717243201.740000) can0 100#BF2EF40300000000
(1717243201.757000) can0 300#F1014B0400000000
(1717243201.760000) can0 100#D12EF40300000000
(1717243201.780000) can0 100#E32EF50300000000
(1717243201.800000) can0 100#F42EF50300000000
(1717243201.803000) can0 200#E10D8302B8000000
(1717243201.807000) can0 300#F3014B0400000000
(1717243201.820000) can0 100#052FF50300000000
(1717243201.840000) can0 100#172FF50300000000
(1717243201.857000) can0 300#F5014B0400000000
(1717243201.860000) can0 100#282FF50300000000
(1717243201.880000) can0 100#382FF50300000000
(1717243201.900000) can0 100#492FF50300000000
(1717243201.903000) can0 200#E10D8702B8000000
(1717243201.907000) can0 300#F6014B0400000000
(1717243201.920000) can0 100#5A2FF60300000000
(1717243201.940000) can0 100#6A2FF60300000000
(1717243201.957000) can0 300#F8014B0400000000
(1717243201.960000) can0 100#7A2FF60300000000
(1717243201.980000) can0 100#8B2FF50300000000
(1717243202.000000) can0 100#9B2FF50300000000
(1717243202.003000) can0 200#E20D8A02B8000000
(1717243202.007000) can0 300#FA014B0400000000
(1717243202.020000) can0 100#AA2FF50300000000
(1717243202.040000) can0 100#BA2FF50300000000
(1717243202.057000) can0 300#FB014B0400000000
(1717243202.060000) can0 100#CA2FF50300000000
(1717243202.080000) can0 100#D92FF50300000000
(1717243202.100000) can0 100#E82FF50300000000
(1717243202.103000) can0 200#E20D8D02B8000000
(1717243202.107000) can0 300#FD014B0400000000
(1717243202.120000) can0 100#F72FF40300000000
(1717243202.140000) can0 100#0630F40300000000
(1717243202.157000) can0 300#FF014B0400000000
(1717243202.160000) can0 100#1530F40300000000
(1717243202.180000) can0 100#2430F40300000000
(1717243202.200000) can0 100#3230F30300000000
(1717243202.203000) can0 200#E20D9002B8000000
(1717243202.207000) can0 300#01024B0400000000
(1717243202.220000) can0 100#4030F30300000000
(1717243202.240000) can0 100#4F30F30300000000
(1717243202.257000) can0 300#02024B0400000000
(1717243202.260000) can0 100#5D30F20300000000
(1717243202.280000) can0 100#6B30F20300000000
(1717243202.300000) can0 100#7830F10300000000
(1717243202.303000) can0 200#E20D9202B8000000
(1717243202.307000) can0 300#04024B0400000000
(1717243202.320000) can0 100#8630F10300000000
(1717243202.340000) can0 100#9330F00300000000
(1717243202.357000) can0 300#06024B0400000000
(1717243202.360000) can0 100#A130F00300000000
(1717243202.380000) can0 100#AE30EF0300000000
(1717243202.400000) can0 100#BB30EE0300000000
(1717243202.403000) can0 200#E20D9402B8000000
(1717243202.407000) can0 300#07024B0400000000
(1717243202.420000) can0 100#C830EE0300000000
(1717243202.440000) can0 100#D430ED0300000000
(1717243202.457000) can0 300#09024B0400000000
(1717243202.460000) can0 100#E130ED0300000000
(1717243202.480000) can0 100#ED30EC0300000000
(1717243202.500000) can0 100#FA30EB0300000000
(1717243202.503000) can0 200#E20D9602B8000000
(1717243202.507000) can0 300#0B024B0400000000
(1717243202.520000) can0 100#0631EA0300000000
(1717243202.540000) can0 100#1231EA0300000000
(1717243202.557000) can0 300#0C024B0400000000
(1717243202.560000) can0 100#1D31E90300000000
(1717243202.580000) can0 100#2931E80300000000
(1717243202.600000) can0 100#3531E70300000000
(1717243202.603000) can0 200#E30D9702B8000000
(1717243202.607000) can0 300#0E024C0400000000
(1717243202.620000) can0 100#4031E60300000000
(1717243202.640000) can0 100#4B31E50300000000
(1717243202.657000) can0 300#10024C0400000000
(1717243202.660000) can0 100#5731E50300000000
(1717243202.680000) can0 100#6231E40300000000
(1717243202.700000) can0 100#6D31E30300000000
(1717243202.703000) can0 200#E30D9802B8000000
(1717243202.707000) can0 300#11024C0400000000
(1717243202.720000) can0 100#7731E20300000000
(1717243202.740000) can0 100#8231E10300000000
(1717243202.757000) can0 300#13024C0400000000
(1717243202.760000) can0 100#8C31E00300000000
(1717243202.780000) can0 100#9731DF0300000000
(1717243202.800000) can0 100#A131DE0300000000
(1717243202.803000) can0 200#E30D9902B8000000
(1717243202.807000) can0 300#15024C0400000000
(1717243202.820000) can0 100#AB31DD0300000000
(1717243202.840000) can0 100#B531DC0300000000
(1717243202.857000) can0 300#16024C0400000000
(1717243202.860000) can0 100#BF31DB0300000000
(1717243202.880000) can0 100#C831DA0300000000
(1717243202.900000) can0 100#D231D80300000000
(1717243202.903000) can0 200#E30D9902B8000000
(1717243202.907000) can0 300#18024C0400000000
(1717243202.920000) can0 100#DC31D70300000000
(1717243202.940000) can0 100#E531D60300000000
(1717243202.957000) can0 300#1A024C0400000000
(1717243202.960000) can0 100#EE31D50300000000
(1717243202.980000) can0 100#F731D40300000000
(1717243203.000000) can0 100#0032D30300000000
(1717243203.003000) can0 200#E30D9902B8000000
(1717243203.007000) can0 300#1B024C0400000000
(1717243203.020000) can0 100#0932D10300000000
(1717243203.040000) can0 100#1232D00300000000
(1717243203.057000) can0 300#1D024C0400000000
(1717243203.060000) can0 100#1A32CF0300000000
(1717243203.080000) can0 100#2332CE0300000000
(1717243203.100000) can0 100#2B32CD0300000000
(1717243203.103000) can0 200#E30D9902B8000000
(1717243203.107000) can0 300#1F024C0400000000
(1717243203.120000) can0 100#3432CB0300000000
(1717243203.140000) can0 100#3C32CA0300000000
(1717243203.157000) can0 300#20024C0400000000
(1717243203.160000) can0 100#4432C90300000000
(1717243203.180000) can0 100#4C32C70300000000
(1717243203.200000) can0 100#5432C60300000000
(1717243203.203000) can0 200#E30D9902B8000000
(1717243203.207000) can0 300#22024C0400000000
(1717243203.220000) can0 100#5B32C50300000000
(1717243203.240000) can0 100#6332C40300000000
(1717243203.257000) can0 300#24024C0400000000
(1717243203.260000) can0 100#6B32C20300000000
(1717243203.280000) can0 100#7232C10300000000
(1717243203.300000) can0 100#7A32C00300000000
(1717243203.303000) can0 200#E40D9802B8000000
(1717243203.307000) can0 300#25024C0400000000
(1717243203.320000) can0 100#8132BE0300000000
(1717243203.340000) can0 100#8832BD0300000000
(1717243203.357000) can0 300#27024C0400000000
(1717243203.360000) can0 100#8F32BC0300000000
(1717243203.380000) can0 100#9632BA0300000000
(1717243203.400000) can0 100#9D32B90300000000
(1717243203.403000) can0 200#E40D9702B8000000
(1717243203.407000) can0 300#28024C0400000000
(1717243203.420000) can0 100#A432B70300000000
(1717243203.440000) can0 100#AB32B60300000000
(1717243203.457000) can0 300#2A024C0400000000
(1717243203.460000) can0 100#B132B50300000000
(1717243203.480000) can0 100#B832B30300000000
(1717243203.500000) can0 100#BF32B20300000000
(1717243203.503000) can0 200#E40D9602B8000000
(1717243203.507000) can0 300#2C024C0400000000
(1717243203.520000) can0 100#C532B10300000000
(1717243203.540000) can0 100#CB32AF0300000000
(1717243203.557000) can0 300#2D024C0400000000
(1717243203.560000) can0 100#D232AE0300000000
(1717243203.580000) can0 100#D832AC0300000000
(1717243203.600000) can0 100#DE32AB0300000000
(1717243203.603000) can0 200#E40D9402B8000000
(1717243203.607000) can0 300#2F024C0400000000
(1717243203.620000) can0 100#E432AA0300000000
(1717243203.640000) can0 100#EA32A80300000000
(1717243203.657000) can0 300#30024C0400000000
(1717243203.660000) can0 100#F032A70300000000
(1717243203.680000) can0 100#F632A50300000000
(1717243203.700000) can0 100#FC32A40300000000
(1717243203.703000) can0 200#E40D9202B8000000
(1717243203.707000) can0 300#32024C0400000000
(1717243203.720000) can0 100#0233A30300000000
(1717243203.740000) can0 100#0833A10300000000
(1717243203.757000) can0 300#34024C0400000000
(1717243203.760000) can0 100#0D33A00300000000
(1717243203.780000) can0 100#13339F0300000000
(1717243203.800000) can0 100#19339D0300000000
(1717243203.803000) can0 200#E40D9102B8000000
(1717243203.807000) can0 300#35024C0400000000
(1717243203.820000) can0 100#1E339C0300000000
(1717243203.840000) can0 100#24339B0300000000
(1717243203.857000) can0 300#37024C0400000000
(1717243203.860000) can0 100#2933990300000000
(1717243203.880000) can0 100#2F33980300000000
(1717243203.900000) can0 100#3433970300000000
(1717243203.903000) can0 200#E40D8F02B8000000
(1717243203.907000) can0 300#38024C0400000000
(1717243203.920000) can0 100#3933950300000000
(1717243203.940000) can0 100#3F33940300000000
(1717243203.957000) can0 300#3A024C0400000000
(1717243203.960000) can0 100#4433930300000000
(1717243203.980000) can0 100#4933910300000000
(1717243204.000000) can0 100#4E33900300000000
(1717243204.003000) can0 200#E50D8C02B8000000
(1717243204.007000) can0 300#3C024C0400000000
(1717243204.020000) can0 100#54338F0300000000
(1717243204.040000) can0 100#59338D0300000000
(1717243204.057000) can0 300#3D024C0400000000
(1717243204.060000) can0 100#5E338C0300000000
(1717243204.080000) can0 100#63338B0300000000
(1717243204.100000) can0 100#68338A0300000000
(1717243204.103000) can0 200#E50D8A02B8000000
(1717243204.107000) can0 300#3F024C0400000000
(1717243204.120000) can0 100#6E33890300000000
(1717243204.140000) can0 100#7333870300000000
(1717243204.157000) can0 300#40024C0400000000
(1717243204.160000) can0 100#7833860300000000
(1717243204.180000) can0 100#7D33850300000000
(1717243204.200000) can0 100#8233840300000000
(1717243204.203000) can0 200#E50D8802B8000000
(1717243204.207000) can0 300#42024C0400000000
(1717243204.220000) can0 100#8733830300000000
(1717243204.240000) can0 100#8C33810300000000
(1717243204.257000) can0 300#43024C0400000000
(1717243204.260000) can0 100#9133800300000000
(1717243204.280000) can0 100#96337F0300000000
(1717243204.300000) can0 100#9B337E0300000000
(1717243204.303000) can0 200#E50D8502B8000000
(1717243204.307000) can0 300#45024C0400000000
(1717243204.320000) can0 100#A1337D0300000000
(1717243204.340000) can0 100#A6337C0300000000
(1717243204.357000) can0 300#47024C0400000000
(1717243204.360000) can0 100#AB337B0300000000
(1717243204.380000) can0 100#B0337A0300000000
(1717243204.400000) can0 100#B533790300000000
(1717243204.403000) can0 200#E50D8302B8000000
(1717243204.407000) can0 300#48024C0400000000
(1717243204.420000) can0 100#BA33780300000000
(1717243204.440000) can0 100#BF33770300000000
(1717243204.457000) can0 300#4A024C0400000000
(1717243204.460000) can0 100#C533760300000000
(1717243204.480000) can0 100#CA33750300000000
(1717243204.500000) can0 100#CF33740300000000
(1717243204.503000) can0 200#E50D8002B8000000
(1717243204.507000) can0 300#4B024C0400000000
(1717243204.520000) can0 100#D433730300000000
(1717243204.540000) can0 100#DA33720300000000
(1717243204.557000) can0 300#4D024C0400000000
(1717243204.560000) can0 100#DF33710300000000
(1717243204.580000) can0 100#E533710300000000
(1717243204.600000) can0 100#EA33700300000000
(1717243204.603000) can0 200#E50D7E02B8000000
(1717243204.607000) can0 300#4E024C0400000000
(1717243204.620000) can0 100#EF336F0300000000
(1717243204.640000) can0 100#F5336E0300000000
(1717243204.657000) can0 300#50024C0400000000
(1717243204.660000) can0 100#FA336D0300000000
(1717243204.680000) can0 100#00346D0300000000
(1717243204.700000) can0 100#06346C0300000000
(1717243204.703000) can0 200#E60D7B02B8000000
(1717243204.707000) can0 300#51024C0400000000
(1717243204.720000) can0 100#0B346B0300000000
(1717243204.740000) can0 100#11346A0300000000
(1717243204.757000) can0 300#53024C0400000000
(1717243204.760000) can0 100#17346A0300000000
(1717243204.780000) can0 100#1D34690300000000
(1717243204.800000) can0 100#2334690300000000
(1717243204.803000) can0 200#E60D7802B8000000
(1717243204.807000) can0 300#54024C0400000000
(1717243204.820000) can0 100#2834680300000000
(1717243204.840000) can0 100#2E34670300000000
(1717243204.857000) can0 300#56024C0400000000
(1717243204.860000) can0 100#3534670300000000
(1717243204.880000) can0 100#3B34660300000000
(1717243204.900000) can0 100#4134660300000000
(1717243204.903000) can0 200#E60D7602B8000000
(1717243204.907000) can0 300#57024C0400000000
(1717243204.920000) can0 100#4734650300000000
(1717243204.940000) can0 100#4D34650300000000
(1717243204.957000) can0 300#59024C0400000000
(1717243204.960000) can0 100#5434640300000000
(1717243204.980000) can0 100#5A34640300000000
(1717243205.000000) can0 100#6134640300000000
(1717243205.003000) can0 200#E60D7402B7000000
(1717243205.007000) can0 300#5A024C0400000000
(1717243205.020000) can0 100#6734630300000000
(1717243205.040000) can0 100#6E34630300000000
(1717243205.057000) can0 300#5C024C0400000000
(1717243205.060000) can0 100#7534620300000000
(1717243205.080000) can0 100#7C34620300000000
(1717243205.100000) can0 100#8334620300000000
(1717243205.103000) can0 200#E60D7102B7000000
(1717243205.107000) can0 300#5D024C0400000000
(1717243205.120000) can0 100#8A34620300000000
(1717243205.140000) can0 100#9134610300000000
(1717243205.157000) can0 300#5F024C0400000000
(1717243205.160000) can0 100#9834610300000000
(1717243205.180000) can0 100#9F34610300000000
(1717243205.200000) can0 100#A634610300000000
(1717243205.203000) can0 200#E60D6F02B7000000
(1717243205.207000) can0 300#60024C0400000000
(1717243205.220000) can0 100#AE34610300000000
(1717243205.240000) can0 100#B534610300000000
(1717243205.257000) can0 300#62024C0400000000
(1717243205.260000) can0 100#BD34600300000000
(1717243205.280000) can0 100#C434600300000000
(1717243205.300000) can0 100#CC34600300000000
(1717243205.303000) can0 200#E60D6D02B7000000
(1717243205.307000) can0 300#63024C0400000000
(1717243205.320000) can0 100#D434600300000000
(1717243205.340000) can0 100#DC34600300000000
(1717243205.357000) can0 300#64024C0400000000
(1717243205.360000) can0 100#E434600300000000
(1717243205.380000) can0 100#EC34600300000000
(1717243205.400000) can0 100#F534610300000000
(1717243205.403000) can0 200#E60D6B02B7000000
(1717243205.407000) can0 300#66024C0400000000
(1717243205.420000) can0 100#FD34610300000000
(1717243205.440000) can0 100#0535610300000000
(1717243205.457000) can0 300#67024C0400000000
(1717243205.460000) can0 100#0E35610300000000
(1717243205.480000) can0 100#1735610300000000
(1717243205.500000) can0 100#1F35610300000000
(1717243205.503000) can0 200#E60D6902B7000000
(1717243205.507000) can0 300#69024C0400000000
(1717243205.520000) can0 100#2835610300000000
(1717243205.540000) can0 100#3135620300000000
(1717243205.557000) can0 300#6A024C0400000000
(1717243205.560000) can0 100#3A35620300000000
(1717243205.580000) can0 100#4435620300000000
(1717243205.600000) can0 100#4D35630300000000
(1717243205.603000) can0 200#E70D6802B7000000
(1717243205.607000) can0 300#6C024C0400000000
(1717243205.620000) can0 100#5635630300000000
(1717243205.640000) can0 100#6035630300000000
(1717243205.657000) can0 300#6D024C0400000000
(1717243205.660000) can0 100#6A35640300000000
(1717243205.680000) can0 100#7335640300000000
(1717243205.700000) can0 100#7D35640300000000
(1717243205.703000) can0 200#E70D6602B7000000
(1717243205.707000) can0 300#6E024C0400000000
(1717243205.720000) can0 100#8735650300000000
(1717243205.740000) can0 100#9135650300000000
(1717243205.757000) can0 300#70024C0400000000
(1717243205.760000) can0 100#9B35660300000000
(1717243205.780000) can0 100#A635660300000000
(1717243205.800000) can0 100#B035670300000000
(1717243205.803000) can0 200#E70D6502B7000000
(1717243205.807000) can0 300#71024C0400000000
(1717243205.820000) can0 100#BB35670300000000
(1717243205.840000) can0 100#C535680300000000
(1717243205.857000) can0 300#73024C0400000000
(1717243205.860000) can0 100#D035680300000000
(1717243205.880000) can0 100#DB35690300000000
(1717243205.900000) can0 100#E6356A0300000000
(1717243205.903000) can0 200#E70D6402B7000000
(1717243205.907000) can0 300#74024C0400000000
(1717243205.920000) can0 100#F1356A0300000000
(1717243205.940000) can0 100#FD356B0300000000
(1717243205.957000) can0 300#75024C0400000000
(1717243205.960000) can0 100#08366B0300000000
(1717243205.980000) can0 100#13366C0300000000
(1717243206.000000) can0 100#1F366D0300000000
(1717243206.003000) can0 200#E70D6302B7000000
(1717243206.007000) can0 300#77024C0400000000
(1717243206.020000) can0 100#2B366D0300000000
(1717243206.040000) can0 100#37366E0300000000
(1717243206.057000) can0 300#78024C0400000000
(1717243206.060000) can0 100#43366F0300000000
(1717243206.080000) can0 100#4F36700300000000
(1717243206.100000) can0 100#5B36700300000000
(1717243206.103000) can0 200#E70D6302B7000000
(1717243206.107000) can0 300#79024C0400000000
(1717243206.120000) can0 100#6736710300000000
(1717243206.140000) can0 100#7436720300000000
(1717243206.157000) can0 300#7B024C0400000000
(1717243206.160000) can0 100#8036730300000000
(1717243206.180000) can0 100#8D36740300000000
(1717243206.200000) can0 100#9A36750300000000
(1717243206.203000) can0 200#E70D6202B7000000
(1717243206.207000) can0 300#7C024C0400000000
(1717243206.220000) can0 100#A736750300000000
(1717243206.240000) can0 100#B436760300000000
(1717243206.257000) can0 300#7E024C0400000000
(1717243206.260000) can0 100#C136770300000000
(1717243206.280000) can0 100#CE36780300000000
(1717243206.300000) can0 100#DC36790300000000
(1717243206.303000) can0 200#E70D6202B7000000
(1717243206.307000) can0 300#7F024C0400000000
(1717243206.320000) can0 100#E9367A0300000000
(1717243206.340000) can0 100#F7367B0300000000
(1717243206.357000) can0 300#80024C0400000000
(1717243206.360000) can0 100#05377C0300000000
(1717243206.380000) can0 100#13377D0300000000
(1717243206.400000) can0 100#21377E0300000000
(1717243206.403000) can0 200#E70D6202B7000000
(1717243206.407000) can0 300#82024C0400000000
(1717243206.420000) can0 100#2F377F0300000000
(1717243206.440000) can0 100#3D37800300000000
(1717243206.457000) can0 300#83024C0400000000
(1717243206.460000) can0 100#4B37810300000000
(1717243206.480000) can0 100#5A37820300000000
(1717243206.500000) can0 100#6837830300000000
(1717243206.503000) can0 200#E70D6302B7000000
(1717243206.507000) can0 300#84024C0400000000
(1717243206.520000) can0 100#7737840300000000
(1717243206.540000) can0 100#8637850300000000
(1717243206.557000) can0 300#85024C0400000000
(1717243206.560000) can0 100#9537860300000000
(1717243206.580000) can0 100#A437870300000000
(1717243206.600000) can0 100#B337880300000000
(1717243206.603000) can0 200#E70D6402B7000000
(1717243206.607000) can0 300#87024C0400000000
(1717243206.620000) can0 100#C237890300000000
(1717243206.640000) can0 100#D1378A0300000000
(1717243206.657000) can0 300#88024C0400000000
(1717243206.660000) can0 100#E1378B0300000000
(1717243206.680000) can0 100#F0378C0300000000
(1717243206.700000) can0 100#00388D0300000000
(1717243206.703000) can0 200#E70D6502B7000000
(1717243206.707000) can0 300#89024C0400000000
(1717243206.720000) can0 100#10388E0300000000
(1717243206.740000) can0 100#20388F0300000000
(1717243206.757000) can0 300#8B024C0400000000
(1717243206.760000) can0 100#3038900300000000
(1717243206.780000) can0 100#4038910300000000
(1717243206.800000) can0 100#5038920300000000
(1717243206.803000) can0 200#E80D6602B7000000
(1717243206.807000) can0 300#8C024C0400000000
(1717243206.820000) can0 100#6038930300000000
(1717243206.840000) can0 100#7038940300000000
(1717243206.857000) can0 300#8D024C0400000000
(1717243206.860000) can0 100#8138950300000000
(1717243206.880000) can0 100#9138960300000000
(1717243206.900000) can0 100#A238970300000000
(1717243206.903000) can0 200#E80D6702B7000000
(1717243206.907000) can0 300#8E024C0400000000
(1717243206.920000) can0 100#B338990300000000
(1717243206.940000) can0 100#C4389A0300000000
(1717243206.957000) can0 300#90024C0400000000
(1717243206.960000) can0 100#D5389B0300000000
(1717243206.980000) can0 100#E6389C0300000000
(1717243207.000000) can0 100#F7389D0300000000
(1717243207.003000) can0 200#E80D6902B7000000
(1717243207.007000) can0 300#91024C0400000000
(1717243207.020000) can0 100#08399E0300000000
(1717243207.040000) can0 100#19399F0300000000
(1717243207.057000) can0 300#92024C0400000000
(1717243207.060000) can0 100#2B39A00300000000
(1717243207.080000) can0 100#3C39A10300000000
(1717243207.100000) can0 100#4E39A20300000000
(1717243207.103000) can0 200#E80D6B02B7000000
(1717243207.107000) can0 300#93024C0400000000
(1717243207.120000) can0 100#5F39A30300000000
(1717243207.140000) can0 100#7139A40300000000
(1717243207.157000) can0 300#95024C0400000000
(1717243207.160000) can0 100#8339A50300000000
(1717243207.180000) can0 100#9439A60300000000
(1717243207.200000) can0 100#A639A70300000000
(1717243207.203000) can0 200#E80D6D02B7000000
(1717243207.207000) can0 300#96024C0400000000
(1717243207.220000) can0 100#B839A80300000000
(1717243207.240000) can0 100#CA39A90300000000
(1717243207.257000) can0 300#97024C0400000000
(1717243207.260000) can0 100#DC39AA0300000000
(1717243207.280000) can0 100#EF39AA0300000000
(1717243207.300000) can0 100#013AAB0300000000
(1717243207.303000) can0 200#E80D7002B7000000
(1717243207.307000) can0 300#98024C0400000000
(1717243207.320000) can0 100#133AAC0300000000
(1717243207.340000) can0 100#253AAD0300000000
(1717243207.357000) can0 300#99024C0400000000
(1717243207.360000) can0 100#383AAE0300000000
(1717243207.380000) can0 100#4A3AAF0300000000
(1717243207.400000) can0 100#5D3AB00300000000
(1717243207.403000) can0 200#E80D7302B7000000
(1717243207.407000) can0 300#9B024C0400000000
(1717243207.420000) can0 100#6F3AB10300000000
(1717243207.440000) can0 100#823AB10300000000
(1717243207.457000) can0 300#9C024C0400000000
(1717243207.460000) can0 100#953AB20300000000
(1717243207.480000) can0 100#A83AB30300000000
(1717243207.500000) can0 100#BA3AB40300000000
(1717243207.503000) can0 200#E80D7602B7000000
(1717243207.507000) can0 300#9D024C0400000000
(1717243207.520000) can0 100#CD3AB50300000000
(1717243207.540000) can0 100#E03AB50300000000
(1717243207.557000) can0 300#9E024C0400000000
(1717243207.560000) can0 100#F33AB60300000000
(1717243207.580000) can0 100#063BB70300000000
(1717243207.600000) can0 100#193BB70300000000
(1717243207.603000) can0 200#E80D7902B7000000
(1717243207.607000) can0 300#9F024C0400000000
(1717243207.620000) can0 100#2C3BB80300000000
(1717243207.640000) can0 100#3F3BB90300000000
(1717243207.657000) can0 300#A0024C0400000000
(1717243207.660000) can0 100#523BB90300000000
(1717243207.680000) can0 100#653BBA0300000000
(1717243207.700000) can0 100#783BBB0300000000
(1717243207.703000) can0 200#E80D7C02B7000000
(1717243207.707000) can0 300#A2024C0400000000
(1717243207.720000) can0 100#8B3BBB0300000000
(1717243207.740000) can0 100#9E3BBC0300000000
(1717243207.757000) can0 300#A3024C0400000000
(1717243207.760000) can0 100#B23BBC0300000000
(1717243207.780000) can0 100#C53BBD0300000000
(1717243207.800000) can0 100#D83BBD0300000000
(1717243207.803000) can0 200#E80D8002B7000000
(1717243207.807000) can0 300#A4024C0400000000
(1717243207.820000) can0 100#EB3BBE0300000000
(1717243207.840000) can0 100#FE3BBE0300000000
(1717243207.857000) can0 300#A5024C0400000000
(1717243207.860000) can0 100#123CBF0300000000
(1717243207.880000) can0 100#253CBF0300000000
(1717243207.900000) can0 100#383CC00300000000
(1717243207.903000) can0 200#E80D8302B7000000
(1717243207.907000) can0 300#A6024C0400000000
(1717243207.920000) can0 100#4B3CC00300000000
(1717243207.940000) can0 100#5F3CC00300000000
(1717243207.957000) can0 300#A7024C0400000000
(1717243207.960000) can0 100#723CC10300000000
(1717243207.980000) can0 100#853CC10300000000
(1717243208.000000) can0 100#983CC10300000000
(1717243208.003000) can0 200#E80D8702B7000000
(1717243208.007000) can0 300#A8024C0400000000
(1717243208.020000) can0 100#AC3CC10300000000
(1717243208.040000) can0 100#BF3CC20300000000
(1717243208.057000) can0 300#A9024C0400000000
(1717243208.060000) can0 100#D23CC20300000000
(1717243208.080000) can0 100#E53CC20300000000
(1717243208.100000) can0 100#F93CC20300000000
(1717243208.103000) can0 200#E80D8B02B7000000
(1717243208.107000) can0 300#AB024C0400000000
(1717243208.120000) can0 100#0C3DC20300000000
(1717243208.140000) can0 100#1F3DC20300000000
(1717243208.157000) can0 300#AC024C0400000000
(1717243208.160000) can0 100#323DC20300000000
(1717243208.180000) can0 100#453DC20300000000
(1717243208.200000) can0 100#583DC20300000000
(1717243208.203000) can0 200#E80D8F02B7000000
(1717243208.207000) can0 300#AD024C0400000000
(1717243208.220000) can0 100#6B3DC20300000000
(1717243208.240000) can0 100#7E3DC20300000000
(1717243208.257000) can0 300#AE024C0400000000
(1717243208.260000) can0 100#913DC20300000000
(1717243208.280000) can0 100#A43DC20300000000
(1717243208.300000) can0 100#B73DC20300000000
(1717243208.303000) can0 200#E80D9302B7000000
(1717243208.307000) can0 300#AF024C0400000000
(1717243208.320000) can0 100#CA3DC20300000000
(1717243208.340000) can0 100#DC3DC20300000000
(1717243208.357000) can0 300#B0024C0400000000
(1717243208.360000) can0 100#EF3DC20300000000
(1717243208.380000) can0 100#023EC10300000000
(1717243208.400000) can0 100#143EC10300000000
(1717243208.403000) can0 200#E80D9702B7000000
(1717243208.407000) can0 300#B1024C0400000000
(1717243208.420000) can0 100#273EC10300000000
(1717243208.440000) can0 100#3A3EC00300000000
(1717243208.457000) can0 300#B2024C0400000000
(1717243208.460000) can0 100#4C3EC00300000000
(1717243208.480000) can0 100#5E3EC00300000000
(1717243208.500000) can0 100#713EBF0300000000
(1717243208.503000) can0 200#E80D9C02B7000000
(1717243208.507000) can0 300#B3024C0400000000
(1717243208.520000) can0 100#833EBF0300000000
(1717243208.540000) can0 100#953EBE0300000000
(1717243208.557000) can0 300#B4024C0400000000
(1717243208.560000) can0 100#A73EBE0300000000
(1717243208.580000) can0 100#B93EBD0300000000
(1717243208.600000) can0 100#CB3EBD0300000000
(1717243208.603000) can0 200#E80DA002B7000000
(1717243208.607000) can0 300#B5024C0400000000
(1717243208.620000) can0 100#DD3EBC0300000000
(1717243208.640000) can0 100#EF3EBC0300000000
(1717243208.657000) can0 300#B6024C0400000000
(1717243208.660000) can0 100#013FBB0300000000
(1717243208.680000) can0 100#133FBA0300000000
(1717243208.700000) can0 100#243FBA0300000000
(1717243208.703000) can0 200#E80DA402B7000000
(1717243208.707000) can0 300#B7024C0400000000
(1717243208.720000) can0 100#363FB90300000000
(1717243208.740000) can0 100#473FB80300000000
(1717243208.757000) can0 300#B8024C0400000000
(1717243208.760000) can0 100#593FB80300000000
(1717243208.780000) can0 100#6A3FB70300000000
(1717243208.800000) can0 100#7B3FB60300000000
(1717243208.803000) can0 200#E80DA802B7000000
(1717243208.807000) can0 300#B9024C0400000000
(1717243208.820000) can0 100#8C3FB50300000000
(1717243208.840000) can0 100#9D3FB40300000000
(1717243208.857000) can0 300#BA024C0400000000
(1717243208.860000) can0 100#AE3FB30300000000
(1717243208.880000) can0 100#BF3FB20300000000
(1717243208.900000) can0 100#CF3FB10300000000
(1717243208.903000) can0 200#E80DAC02B7000000
(1717243208.907000) can0 300#BB024C0400000000
(1717243208.920000) can0 100#E03FB00300000000
(1717243208.940000) can0 100#F03FAF0300000000
(1717243208.957000) can0 300#BC024C0400000000
(1717243208.960000) can0 100#0140AE0300000000
(1717243208.980000) can0 100#1140AD0300000000
(1717243209.000000) can0 100#2140AC0300000000
(1717243209.003000) can0 200#E80DB002B7000000
(1717243209.007000) can0 300#BD024C0400000000
(1717243209.020000) can0 100#3140AB0300000000
(1717243209.040000) can0 100#4140AA0300000000
(1717243209.057000) can0 300#BE024C0400000000
(1717243209.060000) can0 100#5040A90300000000
(1717243209.080000) can0 100#6040A70300000000
(1717243209.100000) can0 100#7040A60300000000
(1717243209.103000) can0 200#E80DB402B7000000
(1717243209.107000) can0 300#BF024C0400000000
(1717243209.120000) can0 100#7F40A50300000000
(1717243209.140000) can0 100#8E40A40300000000
(1717243209.157000) can0 300#C0024C0400000000
(1717243209.160000) can0 100#9D40A20300000000
(1717243209.180000) can0 100#AC40A10300000000
(1717243209.200000) can0 100#BB409F0300000000
(1717243209.203000) can0 200#E80DB802B7000000
(1717243209.207000) can0 300#C0024C0400000000
(1717243209.220000) can0 100#CA409E0300000000
(1717243209.240000) can0 100#D9409D0300000000
(1717243209.257000) can0 300#C1024C0400000000
(1717243209.260000) can0 100#E7409B0300000000
(1717243209.280000) can0 100#F6409A0300000000
(1717243209.300000) can0 100#0441980300000000
(1717243209.303000) can0 200#E80DBC02B7000000
(1717243209.307000) can0 300#C2024C0400000000
(1717243209.320000) can0 100#1241970300000000
(1717243209.340000) can0 100#2041950300000000
(1717243209.357000) can0 300#C3024C0400000000
(1717243209.360000) can0 100#2E41940300000000
(1717243209.380000) can0 100#3B41920300000000
(1717243209.400000) can0 100#4941900300000000
(1717243209.403000) can0 200#E80DC002B7000000
(1717243209.407000) can0 300#C4024C0400000000
(1717243209.420000) can0 100#56418F0300000000
(1717243209.440000) can0 100#63418D0300000000
(1717243209.457000) can0 300#C5024C0400000000
(1717243209.460000) can0 100#70418B0300000000
(1717243209.480000) can0 100#7D418A0300000000
(1717243209.500000) can0 100#8A41880300000000
(1717243209.503000) can0 200#E80DC302B7000000
(1717243209.507000) can0 300#C6024C0400000000
(1717243209.520000) can0 100#9741860300000000
(1717243209.540000) can0 100#A341840300000000
(1717243209.557000) can0 300#C7024C0400000000
(1717243209.560000) can0 100#AF41830300000000
(1717243209.580000) can0 100#BB41810300000000
(1717243209.600000) can0 100#C7417F0300000000
(1717243209.603000) can0 200#E80DC602B7000000
(1717243209.607000) can0 300#C7024C0400000000
(1717243209.620000) can0 100#D3417D0300000000
(1717243209.640000) can0 100#DF417B0300000000
(1717243209.657000) can0 300#C8024C0400000000
(1717243209.660000) can0 100#EA41790300000000
(1717243209.680000) can0 100#F641780300000000
(1717243209.700000) can0 100#0142760300000000
(1717243209.703000) can0 200#E80DC902B7000000
(1717243209.707000) can0 300#C9024C0400000000
(1717243209.720000) can0 100#0C42740300000000
(1717243209.740000) can0 100#1742720300000000
(1717243209.757000) can0 300#CA024C0400000000
(1717243209.760000) can0 100#2142700300000000
(1717243209.780000) can0 100#2C426E0300000000
(1717243209.800000) can0 100#36426C0300000000
(1717243209.803000) can0 200#E80DCC02B7000000
(1717243209.807000) can0 300#CB024C0400000000
(1717243209.820000) can0 100#41426A0300000000
(1717243209.840000) can0 100#4B42680300000000
(1717243209.857000) can0 300#CC024C0400000000
(1717243209.860000) can0 100#5442660300000000
(1717243209.880000) can0 100#5E42640300000000
(1717243209.900000) can0 100#6842620300000000
(1717243209.903000) can0 200#E80DCF02B7000000
(1717243209.907000) can0 300#CC024C0400000000
(1717243209.920000) can0 100#7142600300000000
(1717243209.940000) can0 100#7A425E0300000000
(1717243209.957000) can0 300#CD024C0400000000
(1717243209.960000) can0 100#83425B0300000000
(1717243209.980000) can0 100#8C42590300000000
(1717243210.000000) can0 100#9542570300000000
(1717243210.003000) can0 200#E80DD102B7000000
(1717243210.007000) can0 300#CE024C0400000000
(1717243210.020000) can0 100#9D42550300000000
(1717243210.040000) can0 100#A642530300000000
(1717243210.057000) can0 300#CF024C0400000000
(1717243210.060000) can0 100#AE42510300000000
(1717243210.080000) can0 100#B6424F0300000000
(1717243210.100000) can0 100#BE424C0300000000
(1717243210.103000) can0 200#E80DD302B7000000
(1717243210.107000) can0 300#CF024C0400000000
(1717243210.120000) can0 100#C5424A0300000000
(1717243210.140000) can0 100#CD42480300000000
(1717243210.157000) can0 300#D0024C0400000000
(1717243210.160000) can0 100#D442460300000000
(1717243210.180000) can0 100#DB42440300000000
(1717243210.200000) can0 100#E242410300000000
(1717243210.203000) can0 200#E80DD502B7000000
(1717243210.207000) can0 300#D1024C0400000000
(1717243210.220000) can0 100#E9423F0300000000
(1717243210.240000) can0 100#EF423D0300000000
(1717243210.257000) can0 300#D2024C0400000000
(1717243210.260000) can0 100#F6423B0300000000
(1717243210.280000) can0 100#FC42390300000000
(1717243210.300000) can0 100#0243360300000000
(1717243210.303000) can0 200#E80DD602B7000000
(1717243210.307000) can0 300#D2024C0400000000
(1717243210.320000) can0 100#0843340300000000
(1717243210.340000) can0 100#0E43320300000000
(1717243210.357000) can0 300#D3024C0400000000
(1717243210.360000) can0 100#1343300300000000
(1717243210.380000) can0 100#19432D0300000000
(1717243210.400000) can0 100#1E432B0300000000
(1717243210.403000) can0 200#E80DD702B7000000
(1717243210.407000) can0 300#D4024C0400000000
(1717243210.420000) can0 100#2343290300000000
(1717243210.440000) can0 100#2843270300000000
(1717243210.457000) can0 300#D5024C0400000000
(1717243210.460000) can0 100#2C43240300000000
(1717243210.480000) can0 100#3143220300000000
(1717243210.500000) can0 100#3543200300000000
(1717243210.503000) can0 200#E80DD802B7000000
(1717243210.507000) can0 300#D5024C0400000000
(1717243210.520000) can0 100#39431E0300000000
(1717243210.540000) can0 100#3D431B0300000000
(1717243210.557000) can0 300#D6024C0400000000
(1717243210.560000) can0 100#4143190300000000
(1717243210.580000) can0 100#4543170300000000
(1717243210.600000) can0 100#4843150300000000
(1717243210.603000) can0 200#E80DD902B7000000
(1717243210.607000) can0 300#D7024C0400000000
(1717243210.620000) can0 100#4C43120300000000
(1717243210.640000) can0 100#4F43100300000000
(1717243210.657000) can0 300#D7024C0400000000
(1717243210.660000) can0 100#52430E0300000000
(1717243210.680000) can0 100#55430C0300000000
(1717243210.700000) can0 100#57430A0300000000
(1717243210.703000) can0 200#E80DD902B7000000
(1717243210.707000) can0 300#D8024C0400000000
(1717243210.720000) can0 100#5A43070300000000
(1717243210.740000) can0 100#5C43050300000000
(1717243210.757000) can0 300#D9024C0400000000
(1717243210.760000) can0 100#5E43030300000000
(1717243210.780000) can0 100#6043010300000000
(1717243210.800000) can0 100#6243FF0200000000
(1717243210.803000) can0 200#E80DD902B7000000
(1717243210.807000) can0 300#D9024C0400000000
(1717243210.820000) can0 100#6443FC0200000000
(1717243210.840000) can0 100#6543FA0200000000
(1717243210.857000) can0 300#DA024C0400000000
(1717243210.860000) can0 100#6743F80200000000
(1717243210.880000) can0 100#6843F60200000000
(1717243210.900000) can0 100#6943F40200000000
(1717243210.903000) can0 200#E70DD802B7000000
(1717243210.907000) can0 300#DA024C0400000000
(1717243210.920000) can0 100#6A43F20200000000
(1717243210.940000) can0 100#6A43F00200000000
(1717243210.957000) can0 300#DB024C0400000000
(1717243210.960000) can0 100#6B43EE0200000000
(1717243210.980000) can0 100#6B43EB0200000000
(1717243211.000000) can0 100#6C43E90200000000
(1717243211.003000) can0 200#E70DD702B7000000
(1717243211.007000) can0 300#DC024C0400000000
(1717243211.020000) can0 100#6C43E70200000000
(1717243211.040000) can0 100#6C43E50200000000
(1717243211.057000) can0 300#DC024C0400000000
(1717243211.060000) can0 100#6C43E30200000000
(1717243211.080000) can0 100#6B43E10200000000
(1717243211.100000) can0 100#6B43DF0200000000
(1717243211.103000) can0 200#E70DD602B7000000
(1717243211.107000) can0 300#DD024C0400000000
(1717243211.120000) can0 100#6A43DD0200000000
(1717243211.140000) can0 100#6943DB0200000000
(1717243211.157000) can0 300#DD024C0400000000
(1717243211.160000) can0 100#6843D90200000000
(1717243211.180000) can0 100#6743D70200000000
(1717243211.200000) can0 100#6643D50200000000
(1717243211.203000) can0 200#E70DD402B7000000
(1717243211.207000) can0 300#DE024C0400000000
(1717243211.220000) can0 100#6543D40200000000
(1717243211.240000) can0 100#6443D20200000000
(1717243211.257000) can0 300#DE024C0400000000
(1717243211.260000) can0 100#6243D00200000000
(1717243211.280000) can0 100#6043CE0200000000
(1717243211.300000) can0 100#5E43CC0200000000
(1717243211.303000) can0 200#E70DD202B7000000
(1717243211.307000) can0 300#DF024C0400000000
(1717243211.320000) can0 100#5C43CA0200000000
(1717243211.340000) can0 100#5A43C90200000000
(1717243211.357000) can0 300#E0024C0400000000
(1717243211.360000) can0 100#5843C70200000000
(1717243211.380000) can0 100#5643C50200000000
(1717243211.400000) can0 100#5343C30200000000
(1717243211.403000) can0 200#E70DD002B7000000
(1717243211.407000) can0 300#E0024C0400000000
(1717243211.420000) can0 100#5143C20200000000
(1717243211.440000) can0 100#4E43C00200000000
(1717243211.457000) can0 300#E1024C0400000000
(1717243211.460000) can0 100#4B43BE0200000000
(1717243211.480000) can0 100#4843BC0200000000
(1717243211.500000) can0 100#4543BB0200000000
(1717243211.503000) can0 200#E70DCD02B7000000
(1717243211.507000) can0 300#E1024C0400000000
(1717243211.520000) can0 100#4243B90200000000
(1717243211.540000) can0 100#3F43B80200000000
(1717243211.557000) can0 300#E2024C0400000000
(1717243211.560000) can0 100#3B43B60200000000
(1717243211.580000) can0 100#3843B40200000000
(1717243211.600000) can0 100#3443B30200000000
(1717243211.603000) can0 200#E70DCB02B7000000
(1717243211.607000) can0 300#E2024C0400000000
(1717243211.620000) can0 100#3143B10200000000
(1717243211.640000) can0 100#2D43B00200000000
(1717243211.657000) can0 300#E3024C0400000000
(1717243211.660000) can0 100#2943AF0200000000
(1717243211.680000) can0 100#2543AD0200000000
(1717243211.700000) can0 100#2143AC0200000000
(1717243211.703000) can0 200#E70DC702B7000000
(1717243211.707000) can0 300#E3024C0400000000
(1717243211.720000) can0 100#1D43AA0200000000
(1717243211.740000) can0 100#1843A90200000000
(1717243211.757000) can0 300#E4024C0400000000
(1717243211.760000) can0 100#1443A80200000000
(1717243211.780000) can0 100#1043A60200000000
(1717243211.800000) can0 100#0B43A50200000000
(1717243211.803000) can0 200#E70DC402B7000000
(1717243211.807000) can0 300#E4024C0400000000
(1717243211.820000) can0 100#0743A40200000000
(1717243211.840000) can0 100#0243A20200000000
(1717243211.857000) can0 300#E4024C0400000000
(1717243211.860000) can0 100#FD42A10200000000
(1717243211.880000) can0 100#F842A00200000000
(1717243211.900000) can0 100#F3429F0200000000
(1717243211.903000) can0 200#E70DC002B7000000
(1717243211.907000) can0 300#E5024C0400000000
(1717243211.920000) can0 100#EE429E0200000000
(1717243211.940000) can0 100#E9429D0200000000
(1717243211.957000) can0 300#E5024C0400000000
(1717243211.960000) can0 100#E4429B0200000000
(1717243211.980000) can0 100#DF429A0200000000
(1717243212.000000) can0 100#DA42990200000000
(1717243212.003000) can0 200#E70DBC02B7000000
(1717243212.007000) can0 300#E6024C0400000000
(1717243212.020000) can0 100#D442980200000000
(1717243212.040000) can0 100#CF42970200000000
(1717243212.057000) can0 300#E6024C0400000000
(1717243212.060000) can0 100#C942960200000000
(1717243212.080000) can0 100#C442950200000000
(1717243212.100000) can0 100#BE42940200000000
(1717243212.103000) can0 200#E60DB702B7000000
(1717243212.107000) can0 300#E6024C0400000000
(1717243212.120000) can0 100#B942940200000000
(1717243212.140000) can0 100#B342930200000000
(1717243212.157000) can0 300#E7024C0400000000
(1717243212.160000) can0 100#AD42920200000000
(1717243212.180000) can0 100#A842910200000000
(1717243212.200000) can0 100#A242900200000000
(1717243212.203000) can0 200#E60DB302B7000000
(1717243212.207000) can0 300#E7024C0400000000
(1717243212.220000) can0 100#9C428F0200000000
(1717243212.240000) can0 100#96428F0200000000
(1717243212.257000) can0 300#E8024C0400000000
(1717243212.260000) can0 100#90428E0200000000
(1717243212.280000) can0 100#8A428D0200000000
(1717243212.300000) can0 100#84428D0200000000
(1717243212.303000) can0 200#E60DAE02B7000000
(1717243212.307000) can0 300#E8024C0400000000
(1717243212.320000) can0 100#7E428C0200000000
(1717243212.340000) can0 100#78428B0200000000
(1717243212.357000) can0 300#E8024C0400000000
(1717243212.360000) can0 100#72428B0200000000
(1717243212.380000) can0 100#6C428A0200000000
(1717243212.400000) can0 100#66428A0200000000
(1717243212.403000) can0 200#E60DA902B7000000
(1717243212.407000) can0 300#E9024C0400000000
(1717243212.420000) can0 100#6042890200000000
(1717243212.440000) can0 100#5A42890200000000
(1717243212.457000) can0 300#E9024C0400000000
(1717243212.460000) can0 100#5442880200000000
(1717243212.480000) can0 100#4E42880200000000
(1717243212.500000) can0 100#4842870200000000
(1717243212.503000) can0 200#E60DA302B7000000
(1717243212.507000) can0 300#E9024C0400000000
(1717243212.520000) can0 100#4142870200000000
(1717243212.540000) can0 100#3B42870200000000
(1717243212.557000) can0 300#EA024C0400000000
(1717243212.560000) can0 100#3542860200000000
(1717243212.580000) can0 100#2F42860200000000
(1717243212.600000) can0 100#2942860200000000
(1717243212.603000) can0 200#E60D9E02B7000000
(1717243212.607000) can0 300#EA024C0400000000
(1717243212.620000) can0 100#2242850200000000
(1717243212.640000) can0 100#1C42850200000000
(1717243212.657000) can0 300#EA024C0400000000
(1717243212.660000) can0 100#1642850200000000
(1717243212.680000) can0 100#1042850200000000
(1717243212.700000) can0 100#0A42840200000000
(1717243212.703000) can0 200#E60D9802B7000000
(1717243212.707000) can0 300#EA024C0400000000
(1717243212.720000) can0 100#0442840200000000
(1717243212.740000) can0 100#FE41840200000000
(1717243212.757000) can0 300#EB024C0400000000
(1717243212.760000) can0 100#F741840200000000
(1717243212.780000) can0 100#F141840200000000
(1717243212.800000) can0 100#EB41840200000000
(1717243212.803000) can0 200#E60D9202B7000000
(1717243212.807000) can0 300#EB024C0400000000
(1717243212.820000) can0 100#E541840200000000
(1717243212.840000) can0 100#DF41840200000000
(1717243212.857000) can0 300#EB024C0400000000
(1717243212.860000) can0 100#D941830200000000
(1717243212.880000) can0 100#D341830200000000
(1717243212.900000) can0 100#CD41830200000000
(1717243212.903000) can0 200#E50D8C02B7000000
(1717243212.907000) can0 300#EC024C0400000000
(1717243212.920000) can0 100#C741840200000000
(1717243212.940000) can0 100#C241840200000000
(1717243212.957000) can0 300#EC024C0400000000
(1717243212.960000) can0 100#BC41840200000000
(1717243212.980000) can0 100#B641840200000000
(1717243213.000000) can0 100#B041840200000000
(1717243213.003000) can0 200#E50D8602B7000000
(1717243213.007000) can0 300#EC024C0400000000
(1717243213.020000) can0 100#AA41840200000000
(1717243213.040000) can0 100#A541840200000000
(1717243213.057000) can0 300#EC024C0400000000
(1717243213.060000) can0 100#9F41840200000000
(1717243213.080000) can0 100#9A41840200000000
(1717243213.100000) can0 100#9441850200000000
(1717243213.103000) can0 200#E50D8002B7000000
(1717243213.107000) can0 300#EC024C0400000000
(1717243213.120000) can0 100#8F41850200000000
(1717243213.140000) can0 100#8941850200000000
(1717243213.157000) can0 300#ED024C0400000000
(1717243213.160000) can0 100#8441850200000000
(1717243213.180000) can0 100#7F41850200000000
(1717243213.200000) can0 100#7941860200000000
(1717243213.203000) can0 200#E50D7A02B7000000
(1717243213.207000) can0 300#ED024C0400000000
(1717243213.220000) can0 100#7441860200000000
(1717243213.240000) can0 100#6F41860200000000
(1717243213.257000) can0 300#ED024C0400000000
(1717243213.260000) can0 100#6A41860200000000
(1717243213.280000) can0 100#6541870200000000
(1717243213.300000) can0 100#6041870200000000
(1717243213.303000) can0 200#E50D7402B7000000
(1717243213.307000) can0 300#ED024C0400000000
(1717243213.320000) can0 100#5B41870200000000
(1717243213.340000) can0 100#5641880200000000
(1717243213.357000) can0 300#ED024C0400000000
(1717243213.360000) can0 100#5241880200000000
(1717243213.380000) can0 100#4D41880200000000
(1717243213.400000) can0 100#4841890200000000
(1717243213.403000) can0 200#E50D6D02B7000000
(1717243213.407000) can0 300#ED024C0400000000
(1717243213.420000) can0 100#4441890200000000
(1717243213.440000) can0 100#3F418A0200000000
(1717243213.457000) can0 300#EE024C0400000000
(1717243213.460000) can0 100#3B418A0200000000
(1717243213.480000) can0 100#37418A0200000000
(1717243213.500000) can0 100#33418B0200000000
(1717243213.503000) can0 200#E50D6702B7000000
(1717243213.507000) can0 300#EE024C0400000000
(1717243213.520000) can0 100#2E418B0200000000
(1717243213.540000) can0 100#2A418C0200000000
(1717243213.557000) can0 300#EE024C0400000000
(1717243213.560000) can0 100#26418C0200000000
(1717243213.580000) can0 100#23418D0200000000
(1717243213.600000) can0 100#1F418D0200000000
(1717243213.603000) can0 200#E40D6102B7000000
(1717243213.607000) can0 300#EE024C0400000000
(1717243213.620000) can0 100#1B418D0200000000
(1717243213.640000) can0 100#17418E0200000000
(1717243213.657000) can0 300#EE024C0400000000
(1717243213.660000) can0 100#14418E0200000000
(1717243213.680000) can0 100#10418F0200000000
(1717243213.700000) can0 100#0D418F0200000000
(1717243213.703000) can0 200#E40D5B02B7000000
(1717243213.707000) can0 300#EE024C0400000000
(1717243213.720000) can0 100#0A41900200000000
(1717243213.740000) can0 100#0741900200000000
(1717243213.757000) can0 300#EE024C0400000000
(1717243213.760000) can0 100#0441910200000000
(1717243213.780000) can0 100#0141910200000000
(1717243213.800000) can0 100#FE40920200000000
(1717243213.803000) can0 200#E40D5502B7000000
(1717243213.807000) can0 300#EE024C0400000000
(1717243213.820000) can0 100#FB40920200000000
(1717243213.840000) can0 100#F840930200000000
(1717243213.857000) can0 300#EE024C0400000000
(1717243213.860000) can0 100#F640930200000000
(1717243213.880000) can0 100#F340930200000000
(1717243213.900000) can0 100#F140940200000000
(1717243213.903000) can0 200#E40D4F02B7000000
(1717243213.907000) can0 300#EE024C0400000000
(1717243213.920000) can0 100#EF40940200000000
(1717243213.940000) can0 100#EC40950200000000
(1717243213.957000) can0 300#EE024C0400000000
(1717243213.960000) can0 100#EA40950200000000
(1717243213.980000) can0 100#E840960200000000
(1717243214.000000) can0 100#E640960200000000
(1717243214.003000) can0 200#E40D4902B7000000
(1717243214.007000) can0 300#EE024C0400000000
(1717243214.020000) can0 100#E540970200000000
(1717243214.040000) can0 100#E340970200000000
(1717243214.057000) can0 300#EE024C0400000000
(1717243214.060000) can0 100#E140980200000000
(1717243214.080000) can0 100#E040980200000000
(1717243214.100000) can0 100#DF40980200000000
(1717243214.103000) can0 200#E40D4302B7000000
(1717243214.107000) can0 300#EE024C0400000000
(1717243214.120000) can0 100#DD40990200000000
(1717243214.140000) can0 100#DC40990200000000
(1717243214.157000) can0 300#EE024C0400000000
(1717243214.160000) can0 100#DB409A0200000000
(1717243214.180000) can0 100#DA409A0200000000
(1717243214.200000) can0 100#D9409A0200000000
(1717243214.203000) can0 200#E40D3E02B7000000
(1717243214.207000) can0 300#EE024C0400000000
(1717243214.220000) can0 100#D9409B0200000000
(1717243214.240000) can0 100#D8409B0200000000
(1717243214.257000) can0 300#EE024C0400000000
(1717243214.260000) can0 100#D8409B0200000000
(1717243214.280000) can0 100#D7409C0200000000
(1717243214.300000) can0 100#D7409C0200000000
(1717243214.303000) can0 200#E30D3802B7000000
(1717243214.307000) can0 300#EE024C0400000000
(1717243214.320000) can0 100#D7409C0200000000
(1717243214.340000) can0 100#D7409D0200000000
(1717243214.357000) can0 300#EE024C0400000000
(1717243214.360000) can0 100#D7409D0200000000
(1717243214.380000) can0 100#D7409D0200000000
(1717243214.400000) can0 100#D7409E0200000000
(1717243214.403000) can0 200#E30D3302B7000000
(1717243214.407000) can0 300#EE024C0400000000
(1717243214.420000) can0 100#D7409E0200000000
(1717243214.440000) can0 100#D8409E0200000000
(1717243214.457000) can0 300#EE024C0400000000
(1717243214.460000) can0 100#D8409E0200000000
(1717243214.480000) can0 100#D9409F0200000000
(1717243214.500000) can0 100#DA409F0200000000
(1717243214.503000) can0 200#E30D2E02B7000000
(1717243214.507000) can0 300#EE024C0400000000
(1717243214.520000) can0 100#DB409F0200000000
(1717243214.540000) can0 100#DB409F0200000000
(1717243214.557000) can0 300#EE024C0400000000
(1717243214.560000) can0 100#DD409F0200000000
(1717243214.580000) can0 100#DE409F0200000000
(1717243214.600000) can0 100#DF409F0200000000
(1717243214.603000) can0 200#E30D2902B7000000
(1717243214.607000) can0 300#EE024C0400000000
(1717243214.620000) can0 100#E040A00200000000
(1717243214.640000) can0 100#E240A00200000000
(1717243214.657000) can0 300#EE024C0400000000
(1717243214.660000) can0 100#E340A00200000000
(1717243214.680000) can0 100#E540A00200000000
(1717243214.700000) can0 100#E740A00200000000
(1717243214.703000) can0 200#E30D2502B7000000
(1717243214.707000) can0 300#EE024C0400000000
(1717243214.720000) can0 100#E940A00200000000
(1717243214.740000) can0 100#EB40A00200000000
(1717243214.757000) can0 300#EE024C0400000000
(1717243214.760000) can0 100#ED40A00200000000
(1717243214.780000) can0 100#EF40A00200000000
(1717243214.800000) can0 100#F140A00200000000
(1717243214.803000) can0 200#E30D2002B7000000
(1717243214.807000) can0 300#EE024C0400000000
(1717243214.820000) can0 100#F440A00200000000
(1717243214.840000) can0 100#F6409F0200000000
(1717243214.857000) can0 300#ED024C0400000000
(1717243214.860000) can0 100#F9409F0200000000
(1717243214.880000) can0 100#FB409F0200000000
(1717243214.900000) can0 100#FE409F0200000000
(1717243214.903000) can0 200#E20D1C02B7000000
(1717243214.907000) can0 300#ED024C0400000000
(1717243214.920000) can0 100#01419F0200000000
(1717243214.940000) can0 100#04419F0200000000
(1717243214.957000) can0 300#ED024C0400000000
(1717243214.960000) can0 100#07419E0200000000
(1717243214.980000) can0 100#0A419E0200000000
(1717243215.000000) can0 100#0D419E0200000000
(1717243215.003000) can0 200#E20D1802B6000000
(1717243215.007000) can0 300#ED024C0400000000
(1717243215.020000) can0 100#10419D0200000000
(1717243215.040000) can0 100#14419D0200000000
(1717243215.057000) can0 300#ED024C0400000000
(1717243215.060000) can0 100#17419D0200000000
(1717243215.080000) can0 100#1B419C0200000000
(1717243215.100000) can0 100#1E419C0200000000
(1717243215.103000) can0 200#E20D1502B6000000
(1717243215.107000) can0 300#ED024C0400000000
(1717243215.120000) can0 100#22419B0200000000
(1717243215.140000) can0 100#26419B0200000000
(1717243215.157000) can0 300#EC024C0400000000
(1717243215.160000) can0 100#2A419B0200000000
(1717243215.180000) can0 100#2E419A0200000000
(1717243215.200000) can0 100#32419A0200000000
(1717243215.203000) can0 200#E20D1202B6000000
(1717243215.207000) can0 300#EC024C0400000000
(1717243215.220000) can0 100#3641990200000000
(1717243215.240000) can0 100#3A41980200000000
(1717243215.257000) can0 300#EC024C0400000000
(1717243215.260000) can0 100#3E41980200000000
(1717243215.280000) can0 100#4241970200000000
(1717243215.300000) can0 100#4741960200000000
(1717243215.303000) can0 200#E20D0F02B6000000
(1717243215.307000) can0 300#EC024C0400000000
(1717243215.320000) can0 100#4B41960200000000
(1717243215.340000) can0 100#5041950200000000
(1717243215.357000) can0 300#EC024C0400000000
(1717243215.360000) can0 100#5441940200000000
(1717243215.380000) can0 100#5941940200000000
(1717243215.400000) can0 100#5E41930200000000
(1717243215.403000) can0 200#E10D0C02B6000000
(1717243215.407000) can0 300#EB024C0400000000
(1717243215.420000) can0 100#6241920200000000
(1717243215.440000) can0 100#6741910200000000
(1717243215.457000) can0 300#EB024C0400000000
(1717243215.460000) can0 100#6C41900200000000
(1717243215.480000) can0 100#71418F0200000000
(1717243215.500000) can0 100#76418E0200000000
(1717243215.503000) can0 200#E10D0902B6000000
(1717243215.507000) can0 300#EB024C0400000000
(1717243215.520000) can0 100#7B418E0200000000
(1717243215.540000) can0 100#80418D0200000000
(1717243215.557000) can0 300#EB024C0400000000
(1717243215.560000) can0 100#85418C0200000000
(1717243215.580000) can0 100#8A418B0200000000
(1717243215.600000) can0 100#8F418A0200000000
(1717243215.603000) can0 200#E10D0702B6000000
(1717243215.607000) can0 300#EA024C0400000000
(1717243215.620000) can0 100#9441880200000000
(1717243215.640000) can0 100#9A41870200000000
(1717243215.657000) can0 300#EA024C0400000000
(1717243215.660000) can0 100#9F41860200000000
(1717243215.680000) can0 100#A441850200000000
(1717243215.700000) can0 100#AA41840200000000
(1717243215.703000) can0 200#E10D0502B6000000
(1717243215.707000) can0 300#EA024C0400000000
(1717243215.720000) can0 100#AF41830200000000
(1717243215.740000) can0 100#B441810200000000
(1717243215.757000) can0 300#E9024C0400000000
(1717243215.760000) can0 100#BA41800200000000
(1717243215.780000) can0 100#BF417F0200000000
(1717243215.800000) can0 100#C5417E0200000000
(1717243215.803000) can0 200#E10D0402B6000000
(1717243215.807000) can0 300#E9024C0400000000
(1717243215.820000) can0 100#CA417C0200000000
(1717243215.840000) can0 100#D0417B0200000000
(1717243215.857000) can0 300#E9024C0400000000
(1717243215.860000) can0 100#D6417A0200000000
(1717243215.880000) can0 100#DB41780200000000
(1717243215.900000) can0 100#E141770200000000
(1717243215.903000) can0 200#E00D0202B6000000
(1717243215.907000) can0 300#E8024C0400000000
(1717243215.920000) can0 100#E641750200000000
(1717243215.940000) can0 100#EC41740200000000
(1717243215.957000) can0 300#E8024C0400000000
(1717243215.960000) can0 100#F241720200000000
(1717243215.980000) can0 100#F741710200000000
(1717243216.000000) can0 100#FD416F0200000000
(1717243216.003000) can0 200#E00D0102B6000000
(1717243216.007000) can0 300#E8024C0400000000
(1717243216.020000) can0 100#02426E0200000000
(1717243216.040000) can0 100#08426C0200000000
(1717243216.057000) can0 300#E7024C0400000000
(1717243216.060000) can0 100#0E426A0200000000
(1717243216.080000) can0 100#1342690200000000
(1717243216.100000) can0 100#1942670200000000
(1717243216.103000) can0 200#E00D0002B6000000
(1717243216.107000) can0 300#E7024C0400000000
(1717243216.120000) can0 100#1F42650200000000
(1717243216.140000) can0 100#2442640200000000
(1717243216.157000) can0 300#E7024C0400000000
(1717243216.160000) can0 100#2A42620200000000
(1717243216.180000) can0 100#2F42600200000000
(1717243216.200000) can0 100#35425E0200000000
(1717243216.203000) can0 200#E00D0002B6000000
(1717243216.207000) can0 300#E6024C0400000000
(1717243216.220000) can0 100#3A425D0200000000
(1717243216.240000) can0 100#40425B0200000000
(1717243216.257000) can0 300#E6024C0400000000
(1717243216.260000) can0 100#4542590200000000
(1717243216.280000) can0 100#4B42570200000000
(1717243216.300000) can0 100#5042550200000000
(1717243216.303000) can0 200#E00DFF01B6000000
(1717243216.307000) can0 300#E5024C0400000000
(1717243216.320000) can0 100#5642530200000000
(1717243216.340000) can0 100#5B42510200000000
(1717243216.357000) can0 300#E5024C0400000000
(1717243216.360000) can0 100#60424F0200000000
(1717243216.380000) can0 100#66424D0200000000
(1717243216.400000) can0 100#6B424B0200000000
(1717243216.403000) can0 200#DF0DFF01B6000000
(1717243216.407000) can0 300#E4024C0400000000
(1717243216.420000) can0 100#7042490200000000
(1717243216.440000) can0 100#7542470200000000
(1717243216.457000) can0 300#E4024C0400000000
(1717243216.460000) can0 100#7B42450200000000
(1717243216.480000) can0 100#8042430200000000
(1717243216.500000) can0 100#8542410200000000
(1717243216.503000) can0 200#DF0DFF01B6000000
(1717243216.507000) can0 300#E4024C0400000000
(1717243216.520000) can0 100#8A423F0200000000
(1717243216.540000) can0 100#8F423D0200000000
(1717243216.557000) can0 300#E3024C0400000000
(1717243216.560000) can0 100#93423B0200000000
(1717243216.580000) can0 100#9842390200000000
(1717243216.600000) can0 100#9D42370200000000
(1717243216.603000) can0 200#DF0DFF01B6000000
(1717243216.607000) can0 300#E3024C0400000000
(1717243216.620000) can0 100#A242340200000000
(1717243216.640000) can0 100#A642320200000000
(1717243216.657000) can0 300#E2024C0400000000
(1717243216.660000) can0 100#AB42300200000000
(1717243216.680000) can0 100#AF422E0200000000
(1717243216.700000) can0 100#B4422C0200000000
(1717243216.703000) can0 200#DF0D0002B6000000
(1717243216.707000) can0 300#E2024C0400000000
(1717243216.720000) can0 100#B842290200000000
(1717243216.740000) can0 100#BC42270200000000
(1717243216.757000) can0 300#E1024C0400000000
(1717243216.760000) can0 100#C142250200000000
(1717243216.780000) can0 100#C542230200000000
(1717243216.800000) can0 100#C942200200000000
(1717243216.803000) can0 200#DF0D0002B6000000
(1717243216.807000) can0 300#E1024C0400000000
(1717243216.820000) can0 100#CD421E0200000000
(1717243216.840000) can0 100#D0421C0200000000
(1717243216.857000) can0 300#E0024C0400000000
(1717243216.860000) can0 100#D442190200000000
(1717243216.880000) can0 100#D842170200000000
(1717243216.900000) can0 100#DC42150200000000
(1717243216.903000) can0 200#DE0D0102B6000000
(1717243216.907000) can0 300#E0024C0400000000
(1717243216.920000) can0 100#DF42120200000000
(1717243216.940000) can0 100#E242100200000000
(1717243216.957000) can0 300#DF024C0400000000
(1717243216.960000) can0 100#E6420E0200000000
(1717243216.980000) can0 100#E9420B0200000000
(1717243217.000000) can0 100#EC42090200000000
(1717243217.003000) can0 200#DE0D0202B6000000
(1717243217.007000) can0 300#DF024C0400000000
(1717243217.020000) can0 100#EF42070200000000
(1717243217.040000) can0 100#F242040200000000
(1717243217.057000) can0 300#DE024C0400000000
(1717243217.060000) can0 100#F542020200000000
(1717243217.080000) can0 100#F742FF0100000000
(1717243217.100000) can0 100#FA42FD0100000000
(1717243217.103000) can0 200#DE0D0302B6000000
(1717243217.107000) can0 300#DD024C0400000000
(1717243217.120000) can0 100#FC42FB0100000000
(1717243217.140000) can0 100#FF42F80100000000
(1717243217.157000) can0 300#DD024C0400000000
(1717243217.160000) can0 100#0143F60100000000
(1717243217.180000) can0 100#0343F40100000000
(1717243217.200000) can0 100#0543F10100000000
(1717243217.203000) can0 200#DE0D0402B6000000
(1717243217.207000) can0 300#DC024C0400000000
(1717243217.220000) can0 100#0743EF0100000000
(1717243217.240000) can0 100#0943EC0100000000
(1717243217.257000) can0 300#DC024C0400000000
(1717243217.260000) can0 100#0A43EA0100000000
(1717243217.280000) can0 100#0C43E70100000000
(1717243217.300000) can0 100#0D43E50100000000
(1717243217.303000) can0 200#DE0D0502B6000000
(1717243217.307000) can0 300#DB024C0400000000
(1717243217.320000) can0 100#0E43E30100000000
(1717243217.340000) can0 100#0F43E00100000000
(1717243217.357000) can0 300#DB024C0400000000
(1717243217.360000) can0 100#1043DE0100000000
(1717243217.380000) can0 100#1143DC0100000000
(1717243217.400000) can0 100#1243D90100000000
(1717243217.403000) can0 200#DD0D0602B6000000
(1717243217.407000) can0 300#DA024C0400000000
(1717243217.420000) can0 100#1343D70100000000
(1717243217.440000) can0 100#1343D40100000000
(1717243217.457000) can0 300#D9024C0400000000
(1717243217.460000) can0 100#1343D20100000000
(1717243217.480000) can0 100#1343D00100000000
(1717243217.500000) can0 100#1343CD0100000000
(1717243217.503000) can0 200#DD0D0702B6000000
(1717243217.507000) can0 300#D9024C0400000000
(1717243217.520000) can0 100#1343CB0100000000
(1717243217.540000) can0 100#1343C90100000000
(1717243217.557000) can0 300#D8024C0400000000
(1717243217.560000) can0 100#1343C60100000000
(1717243217.580000) can0 100#1243C40100000000
(1717243217.600000) can0 100#1143C20100000000
(1717243217.603000) can0 200#DD0D0802B6000000
(1717243217.607000) can0 300#D7024C0400000000
(1717243217.620000) can0 100#1043BF0100000000
(1717243217.640000) can0 100#0F43BD0100000000
(1717243217.657000) can0 300#D7024C0400000000
(1717243217.660000) can0 100#0E43BB0100000000
(1717243217.680000) can0 100#0D43B80100000000
(1717243217.700000) can0 100#0B43B60100000000
(1717243217.703000) can0 200#DD0D0902B6000000
(1717243217.707000) can0 300#D6024C0400000000
(1717243217.720000) can0 100#0A43B40100000000
(1717243217.740000) can0 100#0843B10100000000
(1717243217.757000) can0 300#D5024C0400000000
(1717243217.760000) can0 100#0643AF0100000000
(1717243217.780000) can0 100#0443AD0100000000
(1717243217.800000) can0 100#0243AB0100000000
(1717243217.803000) can0 200#DD0D0A02B6000000
(1717243217.807000) can0 300#D5024C0400000000
(1717243217.820000) can0 100#FF42A90100000000
(1717243217.840000) can0 100#FC42A60100000000
(1717243217.857000) can0 300#D4024C0400000000
(1717243217.860000) can0 100#FA42A40100000000
(1717243217.880000) can0 100#F742A20100000000
(1717243217.900000) can0 100#F442A00100000000
(1717243217.903000) can0 200#DC0D0B02B6000000
(1717243217.907000) can0 300#D3024C0400000000
(1717243217.920000) can0 100#F0429E0100000000
(1717243217.940000) can0 100#ED429C0100000000
(1717243217.957000) can0 300#D3024C0400000000
(1717243217.960000) can0 100#E9429A0100000000
(1717243217.980000) can0 100#E642970100000000
(1717243218.000000) can0 100#E242950100000000
(1717243218.003000) can0 200#DC0D0C02B6000000
(1717243218.007000) can0 300#D2024C0400000000
(1717243218.020000) can0 100#DE42930100000000
(1717243218.040000) can0 100#D942910100000000
(1717243218.057000) can0 300#D1024C0400000000
(1717243218.060000) can0 100#D5428F0100000000
(1717243218.080000) can0 100#D0428D0100000000
(1717243218.100000) can0 100#CC428B0100000000
(1717243218.103000) can0 200#DC0D0D02B6000000
(1717243218.107000) can0 300#D0024C0400000000
(1717243218.120000) can0 100#C742890100000000
(1717243218.140000) can0 100#C142870100000000
(1717243218.157000) can0 300#D0024C0400000000
(1717243218.160000) can0 100#BC42850100000000
(1717243218.180000) can0 100#B742840100000000
(1717243218.200000) can0 100#B142820100000000
(1717243218.203000) can0 200#DC0D0E02B6000000
(1717243218.207000) can0 300#CF024C0400000000
(1717243218.220000) can0 100#AB42800100000000
(1717243218.240000) can0 100#A5427E0100000000
(1717243218.257000) can0 300#CE024C0400000000
(1717243218.260000) can0 100#9F427C0100000000
(1717243218.280000) can0 100#99427A0100000000
(1717243218.300000) can0 100#9242790100000000
(1717243218.303000) can0 200#DB0D0E02B6000000
(1717243218.307000) can0 300#CD024C0400000000
(1717243218.320000) can0 100#8C42770100000000
(1717243218.340000) can0 100#8542750100000000
(1717243218.357000) can0 300#CD024C0400000000
(1717243218.360000) can0 100#7E42730100000000
(1717243218.380000) can0 100#7742720100000000
(1717243218.400000) can0 100#6F42700100000000
(1717243218.403000) can0 200#DB0D0F02B6000000
(1717243218.407000) can0 300#CC024C0400000000
(1717243218.420000) can0 100#68426E0100000000
(1717243218.440000) can0 100#60426D0100000000
(1717243218.457000) can0 300#CB024C0400000000
(1717243218.460000) can0 100#58426B0100000000
(1717243218.480000) can0 100#50426A0100000000
(1717243218.500000) can0 100#4842680100000000
(1717243218.503000) can0 200#DB0D0F02B6000000
(1717243218.507000) can0 300#CA024C0400000000
(1717243218.520000) can0 100#3F42670100000000
(1717243218.540000) can0 100#3742650100000000
(1717243218.557000) can0 300#C9024C0400000000
(1717243218.560000) can0 100#2E42640100000000
(1717243218.580000) can0 100#2542620100000000
(1717243218.600000) can0 100#1C42610100000000
(1717243218.603000) can0 200#DB0D0F02B6000000
(1717243218.607000) can0 300#C8024C0400000000
(1717243218.620000) can0 100#13425F0100000000
(1717243218.640000) can0 100#09425E0100000000
(1717243218.657000) can0 300#C8024C0400000000
(1717243218.660000) can0 100#00425D0100000000
(1717243218.680000) can0 100#F6415B0100000000
(1717243218.700000) can0 100#EC415A0100000000
(1717243218.703000) can0 200#DB0D0E02B6000000
(1717243218.707000) can0 300#C7024C0400000000
(1717243218.720000) can0 100#E241590100000000
(1717243218.740000) can0 100#D841580100000000
(1717243218.757000) can0 300#C6024C0400000000
(1717243218.760000) can0 100#CD41570100000000
(1717243218.780000) can0 100#C341550100000000
(1717243218.800000) can0 100#B841540100000000
(1717243218.803000) can0 200#DA0D0E02B6000000
(1717243218.807000) can0 300#C5024C0400000000
(1717243218.820000) can0 100#AD41530100000000
(1717243218.840000) can0 100#A241520100000000
(1717243218.857000) can0 300#C4024C0400000000
(1717243218.860000) can0 100#9641510100000000
(1717243218.880000) can0 100#8B41500100000000
(1717243218.900000) can0 100#7F414F0100000000
(1717243218.903000) can0 200#DA0D0D02B6000000
(1717243218.907000) can0 300#C3024C0400000000
(1717243218.920000) can0 100#74414E0100000000
(1717243218.940000) can0 100#68414D0100000000
(1717243218.957000) can0 300#C2024C0400000000
(1717243218.960000) can0 100#5C414C0100000000
(1717243218.980000) can0 100#4F414B0100000000
(1717243219.000000) can0 100#43414A0100000000
(1717243219.003000) can0 200#DA0D0C02B6000000
(1717243219.007000) can0 300#C2024C0400000000
(1717243219.020000) can0 100#36414A0100000000
(1717243219.040000) can0 100#2A41490100000000
(1717243219.057000) can0 300#C1024C0400000000
(1717243219.060000) can0 100#1D41480100000000
(1717243219.080000) can0 100#1041470100000000
(1717243219.100000) can0 100#0341460100000000
(1717243219.103000) can0 200#DA0D0B02B6000000
(1717243219.107000) can0 300#C0024C0400000000
(1717243219.120000) can0 100#F540460100000000
(1717243219.140000) can0 100#E840450100000000
(1717243219.157000) can0 300#BF024C0400000000
(1717243219.160000) can0 100#DA40440100000000
(1717243219.180000) can0 100#CD40440100000000
(1717243219.200000) can0 100#BF40430100000000
(1717243219.203000) can0 200#D90D0A02B6000000
(1717243219.207000) can0 300#BE024C0400000000
(1717243219.220000) can0 100#B140430100000000
(1717243219.240000) can0 100#A240420100000000
(1717243219.257000) can0 300#BD024C0400000000
(1717243219.260000) can0 100#9440420100000000
(1717243219.280000) can0 100#8640410100000000
(1717243219.300000) can0 100#7740410100000000
(1717243219.303000) can0 200#D90D0802B6000000
(1717243219.307000) can0 300#BC024C0400000000
(1717243219.320000) can0 100#6840400100000000
(1717243219.340000) can0 100#5940400100000000
(1717243219.357000) can0 300#BB024C0400000000
(1717243219.360000) can0 100#4A40400100000000
(1717243219.380000) can0 100#3B403F0100000000
(1717243219.400000) can0 100#2C403F0100000000
(1717243219.403000) can0 200#D90D0602B6000000
(1717243219.407000) can0 300#BA024C0400000000
(1717243219.420000) can0 100#1C403F0100000000
(1717243219.440000) can0 100#0D403E0100000000
(1717243219.457000) can0 300#B9024C0400000000
(1717243219.460000) can0 100#FD3F3E0100000000
(1717243219.480000) can0 100#ED3F3E0100000000
(1717243219.500000) can0 100#DD3F3E0100000000
(1717243219.503000) can0 200#D90D0302B6000000
(1717243219.507000) can0 300#B8024C0400000000
(1717243219.520000) can0 100#CD3F3E0100000000
(1717243219.540000) can0 100#BD3F3D0100000000
(1717243219.557000) can0 300#B7024C0400000000
(1717243219.560000) can0 100#AD3F3D0100000000
(1717243219.580000) can0 100#9C3F3D0100000000
(1717243219.600000) can0 100#8C3F3D0100000000
(1717243219.603000) can0 200#D90D0102B6000000
(1717243219.607000) can0 300#B6024C0400000000
(1717243219.620000) can0 100#7B3F3D0100000000
(1717243219.640000) can0 100#6A3F3D0100000000
(1717243219.657000) can0 300#B5024C0400000000
(1717243219.660000) can0 100#5A3F3D0100000000
(1717243219.680000) can0 100#493F3D0100000000
(1717243219.700000) can0 100#383F3D0100000000
(1717243219.703000) can0 200#D80DFE01B6000000
(1717243219.707000) can0 300#B4024C0400000000
(1717243219.720000) can0 100#263F3D0100000000
(1717243219.740000) can0 100#153F3D0100000000
(1717243219.757000) can0 300#B3024C0400000000
(1717243219.760000) can0 100#043F3E0100000000
(1717243219.780000) can0 100#F23E3E0100000000
(1717243219.800000) can0 100#E13E3E0100000000
(1717243219.803000) can0 200#D80DFA01B6000000
(1717243219.807000) can0 300#B2024C0400000000
(1717243219.820000) can0 100#CF3E3E0100000000
(1717243219.840000) can0 100#BD3E3E0100000000
(1717243219.857000) can0 300#B1024C0400000000
(1717243219.860000) can0 100#AB3E3F0100000000
(1717243219.880000) can0 100#9A3E3F0100000000
(1717243219.900000) can0 100#883E3F0100000000
(1717243219.903000) can0 200#D80DF701B6000000
(1717243219.907000) can0 300#B0024C0400000000
(1717243219.920000) can0 100#753E3F0100000000
(1717243219.940000) can0 100#633E400100000000
(1717243219.957000) can0 300#AF024C0400000000
(1717243219.960000) can0 100#513E400100000000
(1717243219.980000) can0 100#3F3E400100000000
(1717243220.000000) can0 100#2C3E410100000000
(1717243220.003000) can0 200#D80DF301B6000000
(1717243220.007000) can0 300#AE024C0400000000
(1717243220.020000) can0 100#1A3E410100000000
(1717243220.040000) can0 100#073E420100000000
(1717243220.057000) can0 300#AD024C0400000000
(1717243220.060000) can0 100#F53D420100000000
(1717243220.080000) can0 100#E23D430100000000
(1717243220.100000) can0 100#CF3D430100000000
(1717243220.103000) can0 200#D70DEE01B6000000
(1717243220.107000) can0 300#AC024C0400000000
(1717243220.120000) can0 100#BC3D430100000000
(1717243220.140000) can0 100#A93D440100000000
(1717243220.157000) can0 300#AB024C0400000000
(1717243220.160000) can0 100#963D450100000000
(1717243220.180000) can0 100#833D450100000000
(1717243220.200000) can0 100#703D460100000000
(1717243220.203000) can0 200#D70DEA01B6000000
(1717243220.207000) can0 300#AA024C0400000000
(1717243220.220000) can0 100#5D3D460100000000
(1717243220.240000) can0 100#4A3D470100000000
(1717243220.257000) can0 300#A9024C0400000000
(1717243220.260000) can0 100#373D470100000000
(1717243220.280000) can0 100#243D480100000000
(1717243220.300000) can0 100#103D480100000000
(1717243220.303000) can0 200#D70DE501B6000000
(1717243220.307000) can0 300#A7024C0400000000
(1717243220.320000) can0 100#FD3C490100000000
(1717243220.340000) can0 100#EA3C4A0100000000
(1717243220.357000) can0 300#A6024C0400000000
(1717243220.360000) can0 100#D63C4A0100000000
(1717243220.380000) can0 100#C33C4B0100000000
(1717243220.400000) can0 100#AF3C4C0100000000
(1717243220.403000) can0 200#D70DE001B6000000
(1717243220.407000) can0 300#A5024C0400000000
(1717243220.420000) can0 100#9C3C4C0100000000
(1717243220.440000) can0 100#883C4D0100000000
(1717243220.457000) can0 300#A4024C0400000000
(1717243220.460000) can0 100#753C4E0100000000
(1717243220.480000) can0 100#613C4E0100000000
(1717243220.500000) can0 100#4E3C4F0100000000
(1717243220.503000) can0 200#D70DDA01B6000000
(1717243220.507000) can0 300#A3024C0400000000
(1717243220.520000) can0 100#3A3C500100000000
(1717243220.540000) can0 100#263C510100000000
(1717243220.557000) can0 300#A2024C0400000000
(1717243220.560000) can0 100#133C510100000000
(1717243220.580000) can0 100#FF3B520100000000
(1717243220.600000) can0 100#EB3B530100000000
(1717243220.603000) can0 200#D60DD501B6000000
(1717243220.607000) can0 300#A1024C0400000000
(1717243220.620000) can0 100#D83B540100000000
(1717243220.640000) can0 100#C43B540100000000
(1717243220.657000) can0 300#A0024C0400000000
(1717243220.660000) can0 100#B03B550100000000
(1717243220.680000) can0 100#9D3B560100000000
(1717243220.700000) can0 100#893B570100000000
(1717243220.703000) can0 200#D60DCF01B6000000
(1717243220.707000) can0 300#9E024C0400000000
(1717243220.720000) can0 100#753B570100000000
(1717243220.740000) can0 100#623B580100000000
(1717243220.757000) can0 300#9D024C0400000000
(1717243220.760000) can0 100#4E3B590100000000
(1717243220.780000) can0 100#3A3B5A0100000000
(1717243220.800000) can0 100#273B5B0100000000
(1717243220.803000) can0 200#D60DC901B6000000
(1717243220.807000) can0 300#9C024C0400000000
(1717243220.820000) can0 100#133B5B0100000000
(1717243220.840000) can0 100#FF3A5C0100000000
(1717243220.857000) can0 300#9B024C0400000000
(1717243220.860000) can0 100#EC3A5D0100000000
(1717243220.880000) can0 100#D83A5E0100000000
(1717243220.900000) can0 100#C53A5E0100000000
(1717243220.903000) can0 200#D60DC201B6000000
(1717243220.907000) can0 300#9A024C0400000000
(1717243220.920000) can0 100#B13A5F0100000000
(1717243220.940000) can0 100#9E3A600100000000
(1717243220.957000) can0 300#98024C0400000000
(1717243220.960000) can0 100#8A3A610100000000
(1717243220.980000) can0 100#773A610100000000
(1717243221.000000) can0 100#633A620100000000
(1717243221.003000) can0 200#D60DBB01B6000000
(1717243221.007000) can0 300#97024C0400000000
(1717243221.020000) can0 100#503A630100000000
(1717243221.040000) can0 100#3D3A640100000000
(1717243221.057000) can0 300#96024C0400000000
(1717243221.060000) can0 100#293A640100000000
(1717243221.080000) can0 100#163A650100000000
(1717243221.100000) can0 100#033A660100000000
(1717243221.103000) can0 200#D50DB501B6000000
(1717243221.107000) can0 300#95024C0400000000
(1717243221.120000) can0 100#F039670100000000
(1717243221.140000) can0 100#DD39670100000000
(1717243221.157000) can0 300#94024C0400000000
(1717243221.160000) can0 100#CA39680100000000
(1717243221.180000) can0 100#B739690100000000
(1717243221.200000) can0 100#A4396A0100000000
(1717243221.203000) can0 200#D50DAE01B6000000
(1717243221.207000) can0 300#92024C0400000000
(1717243221.220000) can0 100#91396A0100000000
(1717243221.240000) can0 100#7E396B0100000000
(1717243221.257000) can0 300#91024C0400000000
(1717243221.260000) can0 100#6B396C0100000000
(1717243221.280000) can0 100#59396C0100000000
(1717243221.300000) can0 100#46396D0100000000
(1717243221.303000) can0 200#D50DA601B6000000
(1717243221.307000) can0 300#90024C0400000000
(1717243221.320000) can0 100#33396E0100000000
(1717243221.340000) can0 100#21396E0100000000
(1717243221.357000) can0 300#8F024C0400000000
(1717243221.360000) can0 100#0E396F0100000000
(1717243221.380000) can0 100#FC386F0100000000
(1717243221.400000) can0 100#EA38700100000000
(1717243221.403000) can0 200#D50D9F01B6000000
(1717243221.407000) can0 300#8D024C0400000000
(1717243221.420000) can0 100#D738710100000000
(1717243221.440000) can0 100#C538710100000000
(1717243221.457000) can0 300#8C024C0400000000
(1717243221.460000) can0 100#B338720100000000
(1717243221.480000) can0 100#A138720100000000
(1717243221.500000) can0 100#8F38730100000000
(1717243221.503000) can0 200#D50D9801B6000000
(1717243221.507000) can0 300#8B024C0400000000
(1717243221.520000) can0 100#7D38730100000000
(1717243221.540000) can0 100#6B38740100000000
(1717243221.557000) can0 300#8A024C0400000000
(1717243221.560000) can0 100#5A38740100000000
(1717243221.580000) can0 100#4838750100000000
(1717243221.600000) can0 100#3738750100000000
(1717243221.603000) can0 200#D40D9001B6000000
(1717243221.607000) can0 300#88024C0400000000
(1717243221.620000) can0 100#2538760100000000
(1717243221.640000) can0 100#1438760100000000
(1717243221.657000) can0 300#87024C0400000000
(1717243221.660000) can0 100#0338760100000000
(1717243221.680000) can0 100#F137770100000000
(1717243221.700000) can0 100#E037770100000000
(1717243221.703000) can0 200#D40D8801B6000000
(1717243221.707000) can0 300#86024C0400000000
(1717243221.720000) can0 100#CF37770100000000
(1717243221.740000) can0 100#BE37780100000000
(1717243221.757000) can0 300#84024C0400000000
(1717243221.760000) can0 100#AE37780100000000
(1717243221.780000) can0 100#9D37780100000000
(1717243221.800000) can0 100#8C37790100000000
(1717243221.803000) can0 200#D40D8101B6000000
(1717243221.807000) can0 300#83024C0400000000
(1717243221.820000) can0 100#7C37790100000000
(1717243221.840000) can0 100#6C37790100000000
(1717243221.857000) can0 300#82024C0400000000
(1717243221.860000) can0 100#5B37790100000000
(1717243221.880000) can0 100#4B377A0100000000
(1717243221.900000) can0 100#3B377A0100000000
(1717243221.903000) can0 200#D40D7901B6000000
(1717243221.907000) can0 300#80024C0400000000
(1717243221.920000) can0 100#2B377A0100000000
(1717243221.940000) can0 100#1B377A0100000000
(1717243221.957000) can0 300#7F024C0400000000
(1717243221.960000) can0 100#0B377A0100000000
(1717243221.980000) can0 100#FC367A0100000000
(1717243222.000000) can0 100#EC367A0100000000
(1717243222.003000) can0 200#D40D7101B6000000
(1717243222.007000) can0 300#7E024C0400000000
(1717243222.020000) can0 100#DD367A0100000000
(1717243222.040000) can0 100#CD367A0100000000
(1717243222.057000) can0 300#7C024C0400000000
(1717243222.060000) can0 100#BE367A0100000000
(1717243222.080000) can0 100#AF367A0100000000
(1717243222.100000) can0 100#A0367A0100000000
(1717243222.103000) can0 200#D30D6901B6000000
(1717243222.107000) can0 300#7B024C0400000000
(1717243222.120000) can0 100#91367A0100000000
(1717243222.140000) can0 100#83367A0100000000
(1717243222.157000) can0 300#7A024C0400000000
(1717243222.160000) can0 100#74367A0100000000
(1717243222.180000) can0 100#65367A0100000000
(1717243222.200000) can0 100#57367A0100000000
(1717243222.203000) can0 200#D30D6201B6000000
(1717243222.207000) can0 300#78024C0400000000
(1717243222.220000) can0 100#49367A0100000000
(1717243222.240000) can0 100#3B36790100000000
(1717243222.257000) can0 300#77024C0400000000
(1717243222.260000) can0 100#2D36790100000000
(1717243222.280000) can0 100#1F36790100000000
(1717243222.300000) can0 100#1136790100000000
(1717243222.303000) can0 200#D30D5A01B6000000
(1717243222.307000) can0 300#76024C0400000000
(1717243222.320000) can0 100#0336780100000000
(1717243222.340000) can0 100#F635780100000000
(1717243222.357000) can0 300#74024C0400000000
(1717243222.360000) can0 100#E835780100000000
(1717243222.380000) can0 100#DB35770100000000
(1717243222.400000) can0 100#CE35770100000000
(1717243222.403000) can0 200#D30D5201B6000000
(1717243222.407000) can0 300#73024C0400000000
(1717243222.420000) can0 100#C035760100000000
(1717243222.440000) can0 100#B335760100000000
(1717243222.457000) can0 300#72024C0400000000
(1717243222.460000) can0 100#A735750100000000
(1717243222.480000) can0 100#9A35750100000000
(1717243222.500000) can0 100#8D35740100000000
(1717243222.503000) can0 200#D30D4B01B6000000
(1717243222.507000) can0 300#70024C0400000000
(1717243222.520000) can0 100#8135740100000000
(1717243222.540000) can0 100#7435730100000000
(1717243222.557000) can0 300#6F024C0400000000
(1717243222.560000) can0 100#6835730100000000
(1717243222.580000) can0 100#5C35720100000000
(1717243222.600000) can0 100#5035720100000000
(1717243222.603000) can0 200#D20D4301B6000000
(1717243222.607000) can0 300#6D024C0400000000
(1717243222.620000) can0 100#4435710100000000
(1717243222.640000) can0 100#3835700100000000
(1717243222.657000) can0 300#6C024C0400000000
(1717243222.660000) can0 100#2D356F0100000000
(1717243222.680000) can0 100#21356F0100000000
(1717243222.700000) can0 100#16356E0100000000
(1717243222.703000) can0 200#D20D3C01B6000000
(1717243222.707000) can0 300#6A024C0400000000
(1717243222.720000) can0 100#0A356D0100000000
(1717243222.740000) can0 100#FF346C0100000000
(1717243222.757000) can0 300#69024C0400000000
(1717243222.760000) can0 100#F4346C0100000000
(1717243222.780000) can0 100#E9346B0100000000
(1717243222.800000) can0 100#DE346A0100000000
(1717243222.803000) can0 200#D20D3501B6000000
(1717243222.807000) can0 300#68024C0400000000
(1717243222.820000) can0 100#D434690100000000
(1717243222.840000) can0 100#C934680100000000
(1717243222.857000) can0 300#66024C0400000000
(1717243222.860000) can0 100#BF34670100000000
(1717243222.880000) can0 100#B434660100000000
(1717243222.900000) can0 100#AA34650100000000
(1717243222.903000) can0 200#D20D2E01B6000000
(1717243222.907000) can0 300#65024C0400000000
(1717243222.920000) can0 100#A034640100000000
(1717243222.940000) can0 100#9634630100000000
(1717243222.957000) can0 300#63024C0400000000
(1717243222.960000) can0 100#8C34620100000000
(1717243222.980000) can0 100#8234610100000000
(1717243223.000000) can0 100#7934600100000000
(1717243223.003000) can0 200#D20D2701B6000000
(1717243223.007000) can0 300#62024C0400000000
(1717243223.020000) can0 100#6F345F0100000000
(1717243223.040000) can0 100#66345E0100000000
(1717243223.057000) can0 300#60024C0400000000
(1717243223.060000) can0 100#5C345D0100000000
(1717243223.080000) can0 100#53345B0100000000
(1717243223.100000) can0 100#4A345A0100000000
(1717243223.103000) can0 200#D20D2101B6000000
(1717243223.107000) can0 300#5F024C0400000000
(1717243223.120000) can0 100#4134590100000000
(1717243223.140000) can0 100#3834580100000000
(1717243223.157000) can0 300#5D024C0400000000
(1717243223.160000) can0 100#2F34570100000000
(1717243223.180000) can0 100#2634550100000000
(1717243223.200000) can0 100#1E34540100000000
(1717243223.203000) can0 200#D10D1B01B6000000
(1717243223.207000) can0 300#5C024C0400000000
(1717243223.220000) can0 100#1534530100000000
(1717243223.240000) can0 100#0D34510100000000
(1717243223.257000) can0 300#5A024C0400000000
(1717243223.260000) can0 100#0534500100000000
(1717243223.280000) can0 100#FC334F0100000000
(1717243223.300000) can0 100#F4334D0100000000
(1717243223.303000) can0 200#D10D1501B6000000
(1717243223.307000) can0 300#59024C0400000000
(1717243223.320000) can0 100#EC334C0100000000
(1717243223.340000) can0 100#E4334B0100000000
(1717243223.357000) can0 300#58024C0400000000
(1717243223.360000) can0 100#DC33490100000000
(1717243223.380000) can0 100#D533480100000000
(1717243223.400000) can0 100#CD33460100000000
(1717243223.403000) can0 200#D10D0F01B6000000
(1717243223.407000) can0 300#56024C0400000000
(1717243223.420000) can0 100#C533450100000000
(1717243223.440000) can0 100#BE33430100000000
(1717243223.457000) can0 300#55024C0400000000
(1717243223.460000) can0 100#B733420100000000
(1717243223.480000) can0 100#AF33400100000000
(1717243223.500000) can0 100#A8333F0100000000
(1717243223.503000) can0 200#D10D0901B6000000
(1717243223.507000) can0 300#53024C0400000000
(1717243223.520000) can0 100#A1333D0100000000
(1717243223.540000) can0 100#9A333C0100000000
(1717243223.557000) can0 300#52024C0400000000
(1717243223.560000) can0 100#93333A0100000000
(1717243223.580000) can0 100#8C33390100000000
(1717243223.600000) can0 100#8533370100000000
(1717243223.603000) can0 200#D10D0401B6000000
(1717243223.607000) can0 300#50024C0400000000
(1717243223.620000) can0 100#7E33350100000000
(1717243223.640000) can0 100#7833340100000000
(1717243223.657000) can0 300#4E024C0400000000
(1717243223.660000) can0 100#7133320100000000
(1717243223.680000) can0 100#6A33310100000000
(1717243223.700000) can0 100#64332F0100000000
(1717243223.703000) can0 200#D10DFF00B6000000
(1717243223.707000) can0 300#4D024C0400000000
(1717243223.720000) can0 100#5D332D0100000000
(1717243223.740000) can0 100#57332C0100000000
(1717243223.757000) can0 300#4B024C0400000000
(1717243223.760000) can0 100#51332A0100000000
(1717243223.780000) can0 100#4B33280100000000
(1717243223.800000) can0 100#4433270100000000
(1717243223.803000) can0 200#D00DFB00B6000000
(1717243223.807000) can0 300#4A024C0400000000
(1717243223.820000) can0 100#3E33250100000000
(1717243223.840000) can0 100#3833230100000000
(1717243223.857000) can0 300#48024C0400000000
(1717243223.860000) can0 100#3233220100000000
(1717243223.880000) can0 100#2C33200100000000
(1717243223.900000) can0 100#26331E0100000000
(1717243223.903000) can0 200#D00DF600B6000000
(1717243223.907000) can0 300#47024C0400000000
(1717243223.920000) can0 100#20331D0100000000
(1717243223.940000) can0 100#1B331B0100000000
(1717243223.957000) can0 300#45024C0400000000
(1717243223.960000) can0 100#1533190100000000
(1717243223.980000) can0 100#0F33170100000000
(1717243224.000000) can0 100#0933160100000000
(1717243224.003000) can0 200#D00DF200B6000000
(1717243224.007000) can0 300#44024C0400000000
(1717243224.020000) can0 100#0433140100000000
(1717243224.040000) can0 100#FE32120100000000
(1717243224.057000) can0 300#42024C0400000000
(1717243224.060000) can0 100#F832110100000000
(1717243224.080000) can0 100#F3320F0100000000
(1717243224.100000) can0 100#ED320D0100000000
(1717243224.103000) can0 200#D00DEF00B6000000
(1717243224.107000) can0 300#41024C0400000000
(1717243224.120000) can0 100#E8320B0100000000
(1717243224.140000) can0 100#E2320A0100000000
(1717243224.157000) can0 300#3F024C0400000000
(1717243224.160000) can0 100#DD32080100000000
(1717243224.180000) can0 100#D732060100000000
(1717243224.200000) can0 100#D232050100000000
(1717243224.203000) can0 200#D00DEB00B6000000
(1717243224.207000) can0 300#3D024C0400000000
(1717243224.220000) can0 100#CD32030100000000
(1717243224.240000) can0 100#C732010100000000
(1717243224.257000) can0 300#3C024C0400000000
(1717243224.260000) can0 100#C232000100000000
(1717243224.280000) can0 100#BD32FE0000000000
(1717243224.300000) can0 100#B732FC0000000000
(1717243224.303000) can0 200#D00DE800B6000000
(1717243224.307000) can0 300#3A024C0400000000
(1717243224.320000) can0 100#B232FA0000000000
(1717243224.340000) can0 100#AC32F90000000000
(1717243224.357000) can0 300#39024C0400000000
(1717243224.360000) can0 100#A732F70000000000
(1717243224.380000) can0 100#A232F50000000000
(1717243224.400000) can0 100#9C32F40000000000
(1717243224.403000) can0 200#D00DE500B6000000
(1717243224.407000) can0 300#37024C0400000000
(1717243224.420000) can0 100#9732F20000000000
(1717243224.440000) can0 100#9232F10000000000
(1717243224.457000) can0 300#36024C0400000000
(1717243224.460000) can0 100#8C32EF0000000000
(1717243224.480000) can0 100#8732ED0000000000
(1717243224.500000) can0 100#8232EC0000000000
(1717243224.503000) can0 200#CF0DE300B6000000
(1717243224.507000) can0 300#34024C0400000000
(1717243224.520000) can0 100#7C32EA0000000000
(1717243224.540000) can0 100#7732E80000000000
(1717243224.557000) can0 300#32024C0400000000
(1717243224.560000) can0 100#7132E70000000000
(1717243224.580000) can0 100#6C32E50000000000
(1717243224.600000) can0 100#6732E40000000000
(1717243224.603000) can0 200#CF0DE100B6000000
(1717243224.607000) can0 300#31024C0400000000
(1717243224.620000) can0 100#6132E20000000000
(1717243224.640000) can0 100#5C32E10000000000
(1717243224.657000) can0 300#2F024C0400000000
(1717243224.660000) can0 100#5632DF0000000000
(1717243224.680000) can0 100#5032DE0000000000
(1717243224.700000) can0 100#4B32DC0000000000
(1717243224.703000) can0 200#CF0DDF00B6000000
(1717243224.707000) can0 300#2E024C0400000000
(1717243224.720000) can0 100#4532DB0000000000
(1717243224.740000) can0 100#3F32D90000000000
(1717243224.757000) can0 300#2C024C0400000000
(1717243224.760000) can0 100#3A32D80000000000
(1717243224.780000) can0 100#3432D60000000000
(1717243224.800000) can0 100#2E32D50000000000
(1717243224.803000) can0 200#CF0DDE00B6000000
(1717243224.807000) can0 300#2A024C0400000000
(1717243224.820000) can0 100#2832D40000000000
(1717243224.840000) can0 100#2232D20000000000
(1717243224.857000) can0 300#29024C0400000000
(1717243224.860000) can0 100#1C32D10000000000
(1717243224.880000) can0 100#1632CF0000000000
(1717243224.900000) can0 100#1032CE0000000000
(1717243224.903000) can0 200#CF0DDC00B6000000
(1717243224.907000) can0 300#27024C0400000000
(1717243224.920000) can0 100#0A32CD0000000000
(1717243224.940000) can0 100#0432CC0000000000
(1717243224.957000) can0 300#25024C0400000000
(1717243224.960000) can0 100#FE31CA0000000000
(1717243224.980000) can0 100#F831C90000000000
(1717243225.000000) can0 100#F131C80000000000
(1717243225.003000) can0 200#CF0DDC00B5000000
(1717243225.007000) can0 300#24024C0400000000
(1717243225.020000) can0 100#EB31C70000000000
(1717243225.040000) can0 100#E431C50000000000
(1717243225.057000) can0 300#22024C0400000000
(1717243225.060000) can0 100#DE31C40000000000
(1717243225.080000) can0 100#D731C30000000000
(1717243225.100000) can0 100#D131C20000000000
(1717243225.103000) can0 200#CF0DDB00B5000000
(1717243225.107000) can0 300#21024C0400000000
(1717243225.120000) can0 100#CA31C10000000000
(1717243225.140000) can0 100#C331C00000000000
(1717243225.157000) can0 300#1F024C0400000000
(1717243225.160000) can0 100#BC31BF0000000000
(1717243225.180000) can0 100#B531BE0000000000
(1717243225.200000) can0 100#AE31BD0000000000
(1717243225.203000) can0 200#CE0DDB00B5000000
(1717243225.207000) can0 300#1D024C0400000000
(1717243225.220000) can0 100#A731BC0000000000
(1717243225.240000) can0 100#9F31BB0000000000
(1717243225.257000) can0 300#1C024C0400000000
(1717243225.260000) can0 100#9831BA0000000000
(1717243225.280000) can0 100#9131B90000000000
(1717243225.300000) can0 100#8931B80000000000
(1717243225.303000) can0 200#CE0DDB00B5000000
(1717243225.307000) can0 300#1A024C0400000000
(1717243225.320000) can0 100#8131B70000000000
(1717243225.340000) can0 100#7A31B60000000000
(1717243225.357000) can0 300#18024C0400000000
(1717243225.360000) can0 100#7231B50000000000
(1717243225.380000) can0 100#6A31B50000000000
(1717243225.400000) can0 100#6231B40000000000
(1717243225.403000) can0 200#CE0DDB00B5000000
(1717243225.407000) can0 300#17024C0400000000
(1717243225.420000) can0 100#5A31B30000000000
(1717243225.440000) can0 100#5231B30000000000
(1717243225.457000) can0 300#15024C0400000000
(1717243225.460000) can0 100#4931B20000000000
(1717243225.480000) can0 100#4131B10000000000
(1717243225.500000) can0 100#3831B10000000000
(1717243225.503000) can0 200#CE0DDB00B5000000
(1717243225.507000) can0 300#13024C0400000000
(1717243225.520000) can0 100#3031B00000000000
(1717243225.540000) can0 100#2731AF0000000000
(1717243225.557000) can0 300#12024C0400000000
(1717243225.560000) can0 100#1E31AF0000000000
(1717243225.580000) can0 100#1531AE0000000000
(1717243225.600000) can0 100#0C31AE0000000000
(1717243225.603000) can0 200#CE0DDC00B5000000
(1717243225.607000) can0 300#10024C0400000000
(1717243225.620000) can0 100#0331AD0000000000
(1717243225.640000) can0 100#F930AD0000000000
(1717243225.657000) can0 300#0E024D0400000000
(1717243225.660000) can0 100#F030AD0000000000
(1717243225.680000) can0 100#E630AC0000000000
(1717243225.700000) can0 100#DD30AC0000000000
(1717243225.703000) can0 200#CE0DDC00B5000000
(1717243225.707000) can0 300#0D024D0400000000
(1717243225.720000) can0 100#D330AC0000000000
(1717243225.740000) can0 100#C930AB0000000000
(1717243225.757000) can0 300#0B024D0400000000
(1717243225.760000) can0 100#BF30AB0000000000
(1717243225.780000) can0 100#B530AB0000000000
(1717243225.800000) can0 100#AA30AB0000000000
(1717243225.803000) can0 200#CE0DDD00B5000000
(1717243225.807000) can0 300#09024D0400000000
(1717243225.820000) can0 100#A030AA0000000000
(1717243225.840000) can0 100#9530AA0000000000
(1717243225.857000) can0 300#08024D0400000000
(1717243225.860000) can0 100#8B30AA0000000000
(1717243225.880000) can0 100#8030AA0000000000
(1717243225.900000) can0 100#7530AA0000000000
(1717243225.903000) can0 200#CE0DDE00B5000000
(1717243225.907000) can0 300#06024D0400000000
(1717243225.920000) can0 100#6A30AA0000000000
(1717243225.940000) can0 100#5E30AA0000000000
(1717243225.957000) can0 300#04024D0400000000
(1717243225.960000) can0 100#5330AA0000000000
(1717243225.980000) can0 100#4830AA0000000000
(1717243226.000000) can0 100#3C30AA0000000000
(1717243226.003000) can0 200#CE0DE000B5000000
(1717243226.007000) can0 300#03024D0400000000
(1717243226.020000) can0 100#3030AA0000000000
(1717243226.040000) can0 100#2430AB0000000000
(1717243226.057000) can0 300#01024D0400000000
(1717243226.060000) can0 100#1830AB0000000000
(1717243226.080000) can0 100#0C30AB0000000000
(1717243226.100000) can0 100#0030AB0000000000
(1717243226.103000) can0 200#CE0DE100B5000000
(1717243226.107000) can0 300#FF014D0400000000
(1717243226.120000) can0 100#F32FAB0000000000
(1717243226.140000) can0 100#E62FAC0000000000
(1717243226.157000) can0 300#FE014D0400000000
(1717243226.160000) can0 100#DA2FAC0000000000
(1717243226.180000) can0 100#CD2FAC0000000000
(1717243226.200000) can0 100#C02FAD0000000000
(1717243226.203000) can0 200#CD0DE200B5000000
(1717243226.207000) can0 300#FC014D0400000000
(1717243226.220000) can0 100#B22FAD0000000000
(1717243226.240000) can0 100#A52FAE0000000000
(1717243226.257000) can0 300#FA014D0400000000
(1717243226.260000) can0 100#982FAE0000000000
(1717243226.280000) can0 100#8A2FAF0000000000
(1717243226.300000) can0 100#7C2FAF0000000000
(1717243226.303000) can0 200#CD0DE400B5000000
(1717243226.307000) can0 300#F8014D0400000000
(1717243226.320000) can0 100#6E2FB00000000000
(1717243226.340000) can0 100#602FB00000000000
(1717243226.357000) can0 300#F7014D0400000000
(1717243226.360000) can0 100#522FB10000000000
(1717243226.380000) can0 100#432FB20000000000
(1717243226.400000) can0 100#352FB20000000000
(1717243226.403000) can0 200#CD0DE500B5000000
(1717243226.407000) can0 300#F5014D0400000000
(1717243226.420000) can0 100#262FB30000000000
(1717243226.440000) can0 100#172FB40000000000
(1717243226.457000) can0 300#F3014D0400000000
(1717243226.460000) can0 100#082FB40000000000
(1717243226.480000) can0 100#F92EB50000000000
(1717243226.500000) can0 100#EA2EB60000000000
(1717243226.503000) can0 200#CD0DE700B5000000
(1717243226.507000) can0 300#F2014D0400000000
(1717243226.520000) can0 100#DA2EB70000000000
(1717243226.540000) can0 100#CB2EB80000000000
(1717243226.557000) can0 300#F0014D0400000000
(1717243226.560000) can0 100#BB2EB80000000000
(1717243226.580000) can0 100#AB2EB90000000000
(1717243226.600000) can0 100#9B2EBA0000000000
(1717243226.603000) can0 200#CD0DE800B5000000
(1717243226.607000) can0 300#EE014D0400000000
(1717243226.620000) can0 100#8B2EBB0000000000
(1717243226.640000) can0 100#7B2EBC0000000000
(1717243226.657000) can0 300#EC014D0400000000
(1717243226.660000) can0 100#6A2EBD0000000000
(1717243226.680000) can0 100#5A2EBE0000000000
(1717243226.700000) can0 100#492EBF0000000000
(1717243226.703000) can0 200#CD0DEA00B5000000
(1717243226.707000) can0 300#EB014D0400000000
(1717243226.720000) can0 100#382EC00000000000
(1717243226.740000) can0 100#272EC10000000000
(1717243226.757000) can0 300#E9014D0400000000
(1717243226.760000) can0 100#162EC20000000000
(1717243226.780000) can0 100#042EC40000000000
(1717243226.800000) can0 100#F32DC50000000000
(1717243226.803000) can0 200#CD0DEB00B5000000
(1717243226.807000) can0 300#E7014D0400000000
(1717243226.820000) can0 100#E12DC60000000000
(1717243226.840000) can0 100#CF2DC70000000000
(1717243226.857000) can0 300#E6014D0400000000
(1717243226.860000) can0 100#BD2DC80000000000
(1717243226.880000) can0 100#AB2DCA0000000000
(1717243226.900000) can0 100#992DCB0000000000
(1717243226.903000) can0 200#CD0DED00B5000000
(1717243226.907000) can0 300#E4014D0400000000
(1717243226.920000) can0 100#872DCC0000000000
(1717243226.940000) can0 100#742DCD0000000000
(1717243226.957000) can0 300#E2014D0400000000
(1717243226.960000) can0 100#622DCF0000000000
(1717243226.980000) can0 100#4F2DD00000000000
(1717243227.000000) can0 100#3C2DD10000000000
(1717243227.003000) can0 200#CD0DEE00B5000000
(1717243227.007000) can0 300#E0014D0400000000
(1717243227.020000) can0 100#292DD30000000000
(1717243227.040000) can0 100#162DD40000000000
(1717243227.057000) can0 300#DF014D0400000000
(1717243227.060000) can0 100#022DD50000000000
(1717243227.080000) can0 100#EF2CD70000000000
(1717243227.100000) can0 100#DB2CD80000000000
(1717243227.103000) can0 200#CD0DEF00B5000000
(1717243227.107000) can0 300#DD014D0400000000
(1717243227.120000) can0 100#C72CDA0000000000
(1717243227.140000) can0 100#B42CDB0000000000
